Chronologic VCS simulator copyright 1991-2023
Contains Synopsys proprietary information.
Compiler version V-2023.12-SP2_Full64; Runtime version V-2023.12-SP2_Full64;  Aug 31 16:21 2026
     -.--ns INFO     gpi                                ..mbed/gpi_embed.cpp:79   in set_program_name_in_venv        Did not detect Python virtual environment. Using system-wide Python interpreter
     -.--ns INFO     gpi                                ../gpi/GpiCommon.cpp:101  in gpi_print_registered_impl       VPI registered
     0.00ns INFO     cocotb                             Running on Chronologic Simulation VCS Release version V-2023.12-SP2_Full64
     0.00ns INFO     cocotb                             Running tests with cocotb v1.9.0 from /NAS/Tools/anaconda3/envs/py3.11/lib/python3.11/site-packages/cocotb
     0.00ns INFO     cocotb                             Seeding Python random module with 1788164561
     0.00ns INFO     cocotb.regression                  pytest not found, install it to enable better AssertionError messages
     0.00ns INFO     cocotb.regression                  Found test cocotb_bridge.test_qwen_blk0
     0.00ns INFO     cocotb.regression                  running test_qwen_blk0 (1/1)
                                                          Qwen2.5-3B blk.0 full-chain e2e test - 17 operations via Cocotb.
                                                          
                                                          Reads ``blk0_manifest.json`` to drive all 17 operations
                                                          (RMSNorm, MMUL, RoPE, Softmax, VRESID, SiLU, VMUL) through
                                                          the RTL SoC and compares against pre-computed golden outputs.
                                                          
                                                          This is the entry point for ``make run_e2e_blk0``.
[DBG 1000 cy=0] instr_req=0 instr_rdata=00000013 data_req=0 data_we=0 data_addr=xxxxxxxX data_rdata=00000000 data_rvalid=0 state=0 apb_prdata=00000000 apb_pready=1
[DBG 2000 cy=1] instr_req=0 instr_rdata=00000013 data_req=0 data_we=0 data_addr=xxxxxxxX data_rdata=00000000 data_rvalid=0 state=0 apb_prdata=00000000 apb_pready=1
[DBG 3000 cy=2] instr_req=0 instr_rdata=00000013 data_req=0 data_we=0 data_addr=xxxxxxxX data_rdata=00000000 data_rvalid=0 state=0 apb_prdata=00000000 apb_pready=1
[DBG 4000 cy=3] instr_req=0 instr_rdata=00000013 data_req=0 data_we=0 data_addr=xxxxxxxX data_rdata=00000000 data_rvalid=0 state=0 apb_prdata=00000000 apb_pready=1

============================================================
[TB] tb_soc — CaduceusCore Full-Chip Testbench
[TB] Clock: 1 GHz (period = 1 ns)
[TB] Reset: 5 cycles low → de-assert
[TB] DUT: caduceus_soc_top (CROSSBAR_MASTERS=7)
[TB] Cocotb bridge: sim/cocotb_bridge.py
============================================================
[TB] Reset released at cycle 4 (t=5000 ns)

[DBG 5000 cy=4] instr_req=0 instr_rdata=00000013 data_req=0 data_we=0 data_addr=xxxxxxxX data_rdata=00000000 data_rvalid=0 state=0 apb_prdata=00000000 apb_pready=1
[DBG 6000 cy=5] instr_req=0 instr_rdata=00010297 data_req=0 data_we=0 data_addr=xxxxxxxX data_rdata=00000000 data_rvalid=0 state=0 apb_prdata=00000000 apb_pready=1
[PASS] Clock running at 1 GHz (t=6000)
[PASS] rst_n de-asserted after 5 cycles

[DBG 7000 cy=6] instr_req=1 instr_rdata=00010297 data_req=0 data_we=0 data_addr=xxxxxxxX data_rdata=00000000 data_rvalid=0 state=0 apb_prdata=00000000 apb_pready=1
[DBG 8000 cy=7] instr_req=1 instr_rdata=00010297 data_req=0 data_we=0 data_addr=xxxxxxxX data_rdata=00000000 data_rvalid=0 state=0 apb_prdata=00000000 apb_pready=1
[DBG 9000 cy=8] instr_req=1 instr_rdata=f8028293 data_req=0 data_we=0 data_addr=00010080 data_rdata=00000000 data_rvalid=0 state=0 apb_prdata=00000000 apb_pready=1
[DBG 10000 cy=9] instr_req=1 instr_rdata=00010317 data_req=0 data_we=0 data_addr=00010000 data_rdata=00000000 data_rvalid=0 state=0 apb_prdata=00000000 apb_pready=1
[DBG 11000 cy=10] instr_req=1 instr_rdata=f7830313 data_req=0 data_we=0 data_addr=00010088 data_rdata=00000000 data_rvalid=0 state=0 apb_prdata=00000000 apb_pready=1
[DBG 12000 cy=11] instr_req=1 instr_rdata=00001397 data_req=0 data_we=0 data_addr=00010000 data_rdata=00000000 data_rvalid=0 state=0 apb_prdata=00000000 apb_pready=1
[DBG 13000 cy=12] instr_req=1 instr_rdata=42038393 data_req=0 data_we=0 data_addr=00001090 data_rdata=00000000 data_rvalid=0 state=0 apb_prdata=00000000 apb_pready=1
[DBG 14000 cy=13] instr_req=1 instr_rdata=0062dc63 data_req=0 data_we=0 data_addr=000014b0 data_rdata=00000000 data_rvalid=0 state=0 apb_prdata=00000000 apb_pready=1
[DBG 15000 cy=14] instr_req=1 instr_rdata=0003ae03 data_req=0 data_we=0 data_addr=00000000 data_rdata=00000000 data_rvalid=0 state=0 apb_prdata=00000000 apb_pready=1
[DBG 16000 cy=15] instr_req=1 instr_rdata=01c2a023 data_req=0 data_we=0 data_addr=000000b0 data_rdata=00000000 data_rvalid=0 state=0 apb_prdata=00000000 apb_pready=1
[DBG 17000 cy=16] instr_req=1 instr_rdata=00010297 data_req=0 data_we=0 data_addr=000000b0 data_rdata=00000000 data_rvalid=0 state=0 apb_prdata=00000000 apb_pready=1
[DBG 18000 cy=17] instr_req=1 instr_rdata=f5028293 data_req=0 data_we=0 data_addr=000100b0 data_rdata=00000000 data_rvalid=0 state=0 apb_prdata=00000000 apb_pready=1
[DBG 19000 cy=18] instr_req=1 instr_rdata=00010317 data_req=0 data_we=0 data_addr=00010000 data_rdata=00000000 data_rvalid=0 state=0 apb_prdata=00000000 apb_pready=1
[DBG 20000 cy=19] instr_req=1 instr_rdata=f4c30313 data_req=0 data_we=0 data_addr=000100b8 data_rdata=00000000 data_rvalid=0 state=0 apb_prdata=00000000 apb_pready=1
[DBG 21000 cy=20] instr_req=1 instr_rdata=0062d863 data_req=0 data_we=0 data_addr=00010004 data_rdata=00000000 data_rvalid=0 state=0 apb_prdata=00000000 apb_pready=1
[DBG 22000 cy=21] instr_req=1 instr_rdata=0002a023 data_req=0 data_we=0 data_addr=fffffffc data_rdata=00000000 data_rvalid=0 state=0 apb_prdata=00000000 apb_pready=1
[DBG 23000 cy=22] instr_req=1 instr_rdata=00428293 data_req=1 data_we=1 data_addr=00010000 data_rdata=00000000 data_rvalid=0 state=0 apb_prdata=00000000 apb_pready=1
[DBG 24000 cy=23] instr_req=1 instr_rdata=ff5ff06f data_req=0 data_we=1 data_addr=00010000 data_rdata=00000000 data_rvalid=0 state=5 apb_prdata=00000000 apb_pready=1
[DBG 25000 cy=24] instr_req=0 instr_rdata=00014117 data_req=0 data_we=1 data_addr=00010000 data_rdata=00000000 data_rvalid=1 state=0 apb_prdata=00000000 apb_pready=1
[DBG 26000 cy=25] instr_req=1 instr_rdata=f4010113 data_req=0 data_we=0 data_addr=00010004 data_rdata=00000000 data_rvalid=0 state=0 apb_prdata=00000000 apb_pready=1
[DBG 27000 cy=26] instr_req=1 instr_rdata=f4010113 data_req=0 data_we=0 data_addr=000000c0 data_rdata=00000000 data_rvalid=0 state=0 apb_prdata=00000000 apb_pready=1
[DBG 28000 cy=27] instr_req=1 instr_rdata=0062d863 data_req=0 data_we=0 data_addr=000000d0 data_rdata=00000000 data_rvalid=0 state=0 apb_prdata=00000000 apb_pready=1
[DBG 29000 cy=28] instr_req=1 instr_rdata=0002a023 data_req=0 data_we=0 data_addr=00000000 data_rdata=00000000 data_rvalid=0 state=0 apb_prdata=00000000 apb_pready=1
[DBG 30000 cy=29] instr_req=1 instr_rdata=00428293 data_req=0 data_we=0 data_addr=000000d0 data_rdata=00000000 data_rvalid=0 state=0 apb_prdata=00000000 apb_pready=1
[DBG 31000 cy=30] instr_req=1 instr_rdata=00014117 data_req=0 data_we=0 data_addr=000000d0 data_rdata=00000000 data_rvalid=0 state=0 apb_prdata=00000000 apb_pready=1
[DBG 32000 cy=31] instr_req=1 instr_rdata=f4010113 data_req=0 data_we=0 data_addr=000140d0 data_rdata=00000000 data_rvalid=0 state=0 apb_prdata=00000000 apb_pready=1
[DBG 33000 cy=32] instr_req=1 instr_rdata=00001297 data_req=0 data_we=0 data_addr=00014010 data_rdata=00000000 data_rvalid=0 state=0 apb_prdata=00000000 apb_pready=1
[DBG 34000 cy=33] instr_req=1 instr_rdata=34828293 data_req=0 data_we=0 data_addr=000010d8 data_rdata=00000000 data_rvalid=0 state=0 apb_prdata=00000000 apb_pready=1
[DBG 35000 cy=34] instr_req=1 instr_rdata=30529073 data_req=0 data_we=0 data_addr=00001420 data_rdata=00000000 data_rvalid=0 state=0 apb_prdata=00000000 apb_pready=1
[DBG 36000 cy=35] instr_req=1 instr_rdata=000012b7 data_req=0 data_we=0 data_addr=00001118 data_rdata=00000000 data_rvalid=0 state=0 apb_prdata=00000000 apb_pready=1
[DBG 37000 cy=36] instr_req=1 instr_rdata=88028293 data_req=0 data_we=0 data_addr=00001118 data_rdata=00000000 data_rvalid=0 state=0 apb_prdata=00000000 apb_pready=1
[DBG 38000 cy=37] instr_req=0 instr_rdata=30029073 data_req=0 data_we=0 data_addr=00001118 data_rdata=00000000 data_rvalid=0 state=0 apb_prdata=00000000 apb_pready=1
[DBG 39000 cy=38] instr_req=1 instr_rdata=000012b7 data_req=0 data_we=0 data_addr=00001000 data_rdata=00000000 data_rvalid=0 state=0 apb_prdata=00000000 apb_pready=1
[DBG 40000 cy=39] instr_req=1 instr_rdata=000012b7 data_req=0 data_we=0 data_addr=00000880 data_rdata=00000000 data_rvalid=0 state=0 apb_prdata=00000000 apb_pready=1
[DBG 41000 cy=40] instr_req=1 instr_rdata=80028293 data_req=0 data_we=0 data_addr=00000580 data_rdata=00000000 data_rvalid=0 state=0 apb_prdata=00000000 apb_pready=1
[DBG 42000 cy=41] instr_req=0 instr_rdata=30429073 data_req=0 data_we=0 data_addr=00000580 data_rdata=00000000 data_rvalid=0 state=0 apb_prdata=00000000 apb_pready=1
[DBG 43000 cy=42] instr_req=0 instr_rdata=250010ef data_req=0 data_we=0 data_addr=00000580 data_rdata=00000000 data_rvalid=0 state=0 apb_prdata=00000000 apb_pready=1
[DBG 44000 cy=43] instr_req=1 instr_rdata=250010ef data_req=0 data_we=0 data_addr=00001000 data_rdata=00000000 data_rvalid=0 state=0 apb_prdata=00000000 apb_pready=1
[DBG 45000 cy=44] instr_req=1 instr_rdata=250010ef data_req=0 data_we=0 data_addr=00000800 data_rdata=00000000 data_rvalid=0 state=0 apb_prdata=00000000 apb_pready=1
[DBG 46000 cy=45] instr_req=1 instr_rdata=0000006f data_req=0 data_we=0 data_addr=000004fc data_rdata=00000000 data_rvalid=0 state=0 apb_prdata=00000000 apb_pready=1
[DBG 47000 cy=46] instr_req=0 instr_rdata=342022f3 data_req=0 data_we=0 data_addr=000004fc data_rdata=00000000 data_rvalid=0 state=0 apb_prdata=00000000 apb_pready=1
[DBG 48000 cy=47] instr_req=0 instr_rdata=0002c463 data_req=0 data_we=0 data_addr=000004fc data_rdata=00000000 data_rvalid=0 state=0 apb_prdata=00000000 apb_pready=1
[DBG 49000 cy=48] instr_req=1 instr_rdata=0002c463 data_req=0 data_we=0 data_addr=0000134c data_rdata=00000000 data_rvalid=0 state=0 apb_prdata=00000000 apb_pready=1
[DBG 50000 cy=49] instr_req=1 instr_rdata=fc010113 data_req=0 data_we=0 data_addr=00000100 data_rdata=00000000 data_rvalid=0 state=0 apb_prdata=00000000 apb_pready=1
[DBG 51000 cy=50] instr_req=1 instr_rdata=02112e23 data_req=0 data_we=0 data_addr=00013fd0 data_rdata=00000000 data_rvalid=0 state=0 apb_prdata=00000000 apb_pready=1
[DBG 52000 cy=51] instr_req=1 instr_rdata=02812c23 data_req=1 data_we=1 data_addr=0001400c data_rdata=00000000 data_rvalid=0 state=0 apb_prdata=00000000 apb_pready=1
[DBG 53000 cy=52] instr_req=1 instr_rdata=02912a23 data_req=0 data_we=1 data_addr=0001400c data_rdata=00000000 data_rvalid=0 state=5 apb_prdata=00000000 apb_pready=1
[DBG 54000 cy=53] instr_req=0 instr_rdata=03212823 data_req=0 data_we=1 data_addr=0001400c data_rdata=00000000 data_rvalid=1 state=0 apb_prdata=00000000 apb_pready=1
[DBG 55000 cy=54] instr_req=1 instr_rdata=03312623 data_req=1 data_we=1 data_addr=00014008 data_rdata=00000000 data_rvalid=0 state=0 apb_prdata=00000000 apb_pready=1
[DBG 56000 cy=55] instr_req=0 instr_rdata=03312623 data_req=0 data_we=1 data_addr=00014008 data_rdata=00000000 data_rvalid=0 state=5 apb_prdata=00000000 apb_pready=1
[DBG 57000 cy=56] instr_req=0 instr_rdata=03412423 data_req=0 data_we=1 data_addr=00014008 data_rdata=00000000 data_rvalid=1 state=0 apb_prdata=00000000 apb_pready=1
[DBG 58000 cy=57] instr_req=1 instr_rdata=03412423 data_req=1 data_we=1 data_addr=00014004 data_rdata=00000000 data_rvalid=0 state=0 apb_prdata=00000000 apb_pready=1
[DBG 59000 cy=58] instr_req=0 instr_rdata=03412423 data_req=0 data_we=1 data_addr=00014004 data_rdata=00000000 data_rvalid=0 state=5 apb_prdata=00000000 apb_pready=1
[DBG 60000 cy=59] instr_req=0 instr_rdata=dd5fe0ef data_req=0 data_we=1 data_addr=00014004 data_rdata=00000000 data_rvalid=1 state=0 apb_prdata=00000000 apb_pready=1
[DBG 61000 cy=60] instr_req=1 instr_rdata=dd5fe0ef data_req=1 data_we=1 data_addr=00014000 data_rdata=00000000 data_rvalid=0 state=0 apb_prdata=00000000 apb_pready=1
[DBG 62000 cy=61] instr_req=0 instr_rdata=dd5fe0ef data_req=0 data_we=1 data_addr=00014000 data_rdata=00000000 data_rvalid=0 state=5 apb_prdata=00000000 apb_pready=1
[DBG 63000 cy=62] instr_req=0 instr_rdata=00452403 data_req=0 data_we=1 data_addr=00014000 data_rdata=00000000 data_rvalid=1 state=0 apb_prdata=00000000 apb_pready=1
[DBG 64000 cy=63] instr_req=1 instr_rdata=00452403 data_req=1 data_we=1 data_addr=00013ffc data_rdata=00000000 data_rvalid=0 state=0 apb_prdata=00000000 apb_pready=1
[DBG 65000 cy=64] instr_req=0 instr_rdata=00452403 data_req=0 data_we=1 data_addr=00013ffc data_rdata=00000000 data_rvalid=0 state=5 apb_prdata=00000000 apb_pready=1
[DBG 66000 cy=65] instr_req=0 instr_rdata=dd5fe0ef data_req=0 data_we=1 data_addr=00013ffc data_rdata=00000000 data_rvalid=1 state=0 apb_prdata=00000000 apb_pready=1
[DBG 67000 cy=66] instr_req=1 instr_rdata=dd5fe0ef data_req=1 data_we=1 data_addr=00013ff8 data_rdata=00000000 data_rvalid=0 state=0 apb_prdata=00000000 apb_pready=1
[DBG 68000 cy=67] instr_req=0 instr_rdata=dd5fe0ef data_req=0 data_we=1 data_addr=00013ff8 data_rdata=00000000 data_rvalid=0 state=5 apb_prdata=00000000 apb_pready=1
[DBG 69000 cy=68] instr_req=0 instr_rdata=1ff00793 data_req=0 data_we=1 data_addr=00013ff8 data_rdata=00000000 data_rvalid=1 state=0 apb_prdata=00000000 apb_pready=1
[DBG 70000 cy=69] instr_req=1 instr_rdata=1ff00793 data_req=0 data_we=0 data_addr=0000013c data_rdata=00000000 data_rvalid=0 state=0 apb_prdata=00000000 apb_pready=1
[DBG 71000 cy=70] instr_req=1 instr_rdata=40005537 data_req=0 data_we=0 data_addr=0000136c data_rdata=00000000 data_rvalid=0 state=0 apb_prdata=00000000 apb_pready=1
[DBG 72000 cy=71] instr_req=1 instr_rdata=00008067 data_req=0 data_we=0 data_addr=40005000 data_rdata=00000000 data_rvalid=0 state=0 apb_prdata=00000000 apb_pready=1
[DBG 73000 cy=72] instr_req=1 instr_rdata=40006537 data_req=0 data_we=0 data_addr=0000136c data_rdata=00000000 data_rvalid=0 state=0 apb_prdata=00000000 apb_pready=1
[DBG 74000 cy=73] instr_req=1 instr_rdata=00452403 data_req=0 data_we=0 data_addr=00000144 data_rdata=00000000 data_rvalid=0 state=0 apb_prdata=00000000 apb_pready=1
[DBG 75000 cy=74] instr_req=1 instr_rdata=dd5fe0ef data_req=1 data_we=0 data_addr=40005004 data_rdata=00000000 data_rvalid=0 state=0 apb_prdata=00000000 apb_pready=1
[DBG 76000 cy=75] instr_req=1 instr_rdata=1ff00793 data_req=0 data_we=0 data_addr=40005004 data_rdata=00000000 data_rvalid=0 state=3 apb_prdata=00000000 apb_pready=0
[DBG 77000 cy=76] instr_req=0 instr_rdata=00f52223 data_req=0 data_we=0 data_addr=40005004 data_rdata=00000000 data_rvalid=0 state=3 apb_prdata=00000000 apb_pready=1
[DBG 78000 cy=77] instr_req=0 instr_rdata=deadc7b7 data_req=0 data_we=0 data_addr=40005004 data_rdata=00000000 data_rvalid=1 state=0 apb_prdata=00000000 apb_pready=0
[DBG 79000 cy=78] instr_req=1 instr_rdata=deadc7b7 data_req=0 data_we=0 data_addr=00000144 data_rdata=00000000 data_rvalid=0 state=0 apb_prdata=00000000 apb_pready=0
[DBG 80000 cy=79] instr_req=1 instr_rdata=40006537 data_req=0 data_we=0 data_addr=00001374 data_rdata=00000000 data_rvalid=0 state=0 apb_prdata=00000000 apb_pready=0
[DBG 81000 cy=80] instr_req=1 instr_rdata=00008067 data_req=0 data_we=0 data_addr=40006000 data_rdata=00000000 data_rvalid=0 state=0 apb_prdata=00000000 apb_pready=0
[DBG 82000 cy=81] instr_req=1 instr_rdata=0040006f data_req=0 data_we=0 data_addr=00001374 data_rdata=00000000 data_rvalid=0 state=0 apb_prdata=00000000 apb_pready=0
[DBG 83000 cy=82] instr_req=1 instr_rdata=1ff00793 data_req=0 data_we=0 data_addr=0000014c data_rdata=00000000 data_rvalid=0 state=0 apb_prdata=00000000 apb_pready=0
[DBG 84000 cy=83] instr_req=1 instr_rdata=00f52223 data_req=0 data_we=0 data_addr=000001fc data_rdata=00000000 data_rvalid=0 state=0 apb_prdata=00000000 apb_pready=0
[DBG 85000 cy=84] instr_req=1 instr_rdata=deadc7b7 data_req=1 data_we=1 data_addr=40006004 data_rdata=00000000 data_rvalid=0 state=0 apb_prdata=00000000 apb_pready=0
[DBG 86000 cy=85] instr_req=1 instr_rdata=80008737 data_req=0 data_we=1 data_addr=40006004 data_rdata=00000000 data_rvalid=0 state=4 apb_prdata=00000000 apb_pready=1
[DBG 87000 cy=86] instr_req=0 instr_rdata=eef78793 data_req=0 data_we=1 data_addr=40006004 data_rdata=00000000 data_rvalid=0 state=4 apb_prdata=00000000 apb_pready=1
[DBG 88000 cy=87] instr_req=0 instr_rdata=00f72023 data_req=0 data_we=1 data_addr=40006004 data_rdata=00000000 data_rvalid=1 state=0 apb_prdata=00000000 apb_pready=1
[DBG 89000 cy=88] instr_req=1 instr_rdata=00f72023 data_req=0 data_we=0 data_addr=deadc000 data_rdata=00000000 data_rvalid=0 state=0 apb_prdata=00000000 apb_pready=1
[DBG 90000 cy=89] instr_req=1 instr_rdata=00f72023 data_req=0 data_we=0 data_addr=80008000 data_rdata=00000000 data_rvalid=0 state=0 apb_prdata=00000000 apb_pready=1
[DBG 91000 cy=90] instr_req=1 instr_rdata=00072703 data_req=0 data_we=0 data_addr=deadbeec data_rdata=00000000 data_rvalid=0 state=0 apb_prdata=00000000 apb_pready=1
[DBG 92000 cy=91] instr_req=1 instr_rdata=0bb00493 data_req=1 data_we=1 data_addr=80008000 data_rdata=00000000 data_rvalid=0 state=0 apb_prdata=00000000 apb_pready=1
[DBG 93000 cy=92] instr_req=0 instr_rdata=00f71463 data_req=0 data_we=1 data_addr=80008000 data_rdata=00000000 data_rvalid=0 state=2 apb_prdata=00000000 apb_pready=1
[DBG 94000 cy=93] instr_req=0 instr_rdata=0aa00493 data_req=0 data_we=1 data_addr=80008000 data_rdata=00000000 data_rvalid=0 state=2 apb_prdata=00000000 apb_pready=1
[DBG 95000 cy=94] instr_req=0 instr_rdata=0aa00493 data_req=0 data_we=1 data_addr=80008000 data_rdata=00000000 data_rvalid=0 state=2 apb_prdata=00000000 apb_pready=1
[DBG 96000 cy=95] instr_req=0 instr_rdata=0aa00493 data_req=0 data_we=1 data_addr=80008000 data_rdata=00000000 data_rvalid=0 state=2 apb_prdata=00000000 apb_pready=1
[DBG 97000 cy=96] instr_req=0 instr_rdata=0aa00493 data_req=0 data_we=1 data_addr=80008000 data_rdata=00000000 data_rvalid=0 state=2 apb_prdata=00000000 apb_pready=1
[DBG 98000 cy=97] instr_req=0 instr_rdata=0aa00493 data_req=0 data_we=1 data_addr=80008000 data_rdata=00000000 data_rvalid=0 state=2 apb_prdata=00000000 apb_pready=1
[DBG 99000 cy=98] instr_req=0 instr_rdata=0aa00493 data_req=0 data_we=1 data_addr=80008000 data_rdata=00000000 data_rvalid=0 state=2 apb_prdata=00000000 apb_pready=1
[DBG 100000 cy=99] instr_req=0 instr_rdata=0aa00493 data_req=0 data_we=1 data_addr=80008000 data_rdata=00000000 data_rvalid=0 state=2 apb_prdata=00000000 apb_pready=1
[DBG 101000 cy=100] instr_req=0 instr_rdata=0aa00493 data_req=0 data_we=1 data_addr=80008000 data_rdata=00000000 data_rvalid=0 state=2 apb_prdata=00000000 apb_pready=1
[DBG 102000 cy=101] instr_req=0 instr_rdata=0aa00493 data_req=0 data_we=1 data_addr=80008000 data_rdata=00000000 data_rvalid=0 state=2 apb_prdata=00000000 apb_pready=1
[DBG 103000 cy=102] instr_req=0 instr_rdata=0aa00493 data_req=0 data_we=1 data_addr=80008000 data_rdata=00000000 data_rvalid=0 state=2 apb_prdata=00000000 apb_pready=1
[DBG 104000 cy=103] instr_req=0 instr_rdata=0aa00493 data_req=0 data_we=1 data_addr=80008000 data_rdata=00000000 data_rvalid=0 state=2 apb_prdata=00000000 apb_pready=1
[DBG 105000 cy=104] instr_req=0 instr_rdata=0aa00493 data_req=0 data_we=1 data_addr=80008000 data_rdata=00000000 data_rvalid=0 state=2 apb_prdata=00000000 apb_pready=1
[DBG 106000 cy=105] instr_req=0 instr_rdata=0aa00493 data_req=0 data_we=1 data_addr=80008000 data_rdata=00000000 data_rvalid=0 state=2 apb_prdata=00000000 apb_pready=1
[DBG 107000 cy=106] instr_req=0 instr_rdata=0aa00493 data_req=0 data_we=1 data_addr=80008000 data_rdata=00000000 data_rvalid=0 state=2 apb_prdata=00000000 apb_pready=1
[DBG 108000 cy=107] instr_req=0 instr_rdata=0aa00493 data_req=0 data_we=1 data_addr=80008000 data_rdata=00000000 data_rvalid=0 state=2 apb_prdata=00000000 apb_pready=1
[DBG 109000 cy=108] instr_req=0 instr_rdata=0aa00493 data_req=0 data_we=1 data_addr=80008000 data_rdata=00000000 data_rvalid=0 state=2 apb_prdata=00000000 apb_pready=1
[DBG 110000 cy=109] instr_req=0 instr_rdata=0aa00493 data_req=0 data_we=1 data_addr=80008000 data_rdata=00000000 data_rvalid=0 state=2 apb_prdata=00000000 apb_pready=1
[DBG 111000 cy=110] instr_req=0 instr_rdata=0aa00493 data_req=0 data_we=1 data_addr=80008000 data_rdata=00000000 data_rvalid=0 state=2 apb_prdata=00000000 apb_pready=1
[DBG 112000 cy=111] instr_req=0 instr_rdata=0aa00493 data_req=0 data_we=1 data_addr=80008000 data_rdata=00000000 data_rvalid=0 state=2 apb_prdata=00000000 apb_pready=1
[DBG 113000 cy=112] instr_req=0 instr_rdata=0aa00493 data_req=0 data_we=1 data_addr=80008000 data_rdata=00000000 data_rvalid=0 state=2 apb_prdata=00000000 apb_pready=1
[DBG 114000 cy=113] instr_req=0 instr_rdata=0aa00493 data_req=0 data_we=1 data_addr=80008000 data_rdata=00000000 data_rvalid=0 state=2 apb_prdata=00000000 apb_pready=1
[DBG 115000 cy=114] instr_req=0 instr_rdata=0aa00493 data_req=0 data_we=1 data_addr=80008000 data_rdata=00000000 data_rvalid=0 state=2 apb_prdata=00000000 apb_pready=1
[DBG 116000 cy=115] instr_req=0 instr_rdata=0aa00493 data_req=0 data_we=1 data_addr=80008000 data_rdata=00000000 data_rvalid=0 state=2 apb_prdata=00000000 apb_pready=1
[DBG 117000 cy=116] instr_req=0 instr_rdata=0aa00493 data_req=0 data_we=1 data_addr=80008000 data_rdata=00000000 data_rvalid=0 state=2 apb_prdata=00000000 apb_pready=1
[DBG 118000 cy=117] instr_req=0 instr_rdata=0aa00493 data_req=0 data_we=1 data_addr=80008000 data_rdata=00000000 data_rvalid=0 state=2 apb_prdata=00000000 apb_pready=1
[DBG 119000 cy=118] instr_req=0 instr_rdata=0aa00493 data_req=0 data_we=1 data_addr=80008000 data_rdata=00000000 data_rvalid=0 state=2 apb_prdata=00000000 apb_pready=1
[DBG 120000 cy=119] instr_req=0 instr_rdata=0aa00493 data_req=0 data_we=1 data_addr=80008000 data_rdata=00000000 data_rvalid=0 state=2 apb_prdata=00000000 apb_pready=1
[TB] SoC warm-up: 205 cycles elapsed
[TB] Ibex should be booting from boot_rom...

[TB] COCOTB mode — waiting for Python control...
  2324.50ns WARNING  cocotb_bridge                      [diag] op00_RMSNORM pre-attn: input SRAM at 0x20010000 = e057d054a0d24052c0cc30d40044c052
  2344.50ns WARNING  cocotb_bridge                      [sfu_mon] op00_RMSNORM pre-attn sfu_raddr=0x20010000 rdata=0x54D057E0
  2345.50ns WARNING  cocotb_bridge                      [sfu_mon] op00_RMSNORM pre-attn sfu_raddr=0x20010004 rdata=0x5240D2A0
  2346.50ns WARNING  cocotb_bridge                      [sfu_mon] op00_RMSNORM pre-attn sfu_raddr=0x20010004 rdata=0x5240D2A0
  2347.50ns WARNING  cocotb_bridge                      [sfu_mon] op00_RMSNORM pre-attn sfu_raddr=0x20010008 rdata=0xD430CCC0
  2348.50ns WARNING  cocotb_bridge                      [sfu_mon] op00_RMSNORM pre-attn sfu_raddr=0x20010008 rdata=0xD430CCC0
  2349.50ns WARNING  cocotb_bridge                      [sfu_mon] op00_RMSNORM pre-attn sfu_raddr=0x2001000C rdata=0x52C04400
  2350.50ns WARNING  cocotb_bridge                      [sfu_mon] op00_RMSNORM pre-attn sfu_raddr=0x2001000C rdata=0x52C04400
  2351.50ns WARNING  cocotb_bridge                      [sfu_mon] op00_RMSNORM pre-attn sfu_raddr=0x20010010 rdata=0xCCC0C000
  2352.50ns WARNING  cocotb_bridge                      [sfu_mon] op00_RMSNORM pre-attn sfu_raddr=0x20010010 rdata=0xCCC0C000
  2353.50ns WARNING  cocotb_bridge                      [sfu_mon] op00_RMSNORM pre-attn sfu_raddr=0x20010014 rdata=0xD2E0D400
  2354.50ns WARNING  cocotb_bridge                      [sfu_mon] op00_RMSNORM pre-attn sfu_raddr=0x20010014 rdata=0xD2E0D400
  2355.50ns WARNING  cocotb_bridge                      [sfu_mon] op00_RMSNORM pre-attn sfu_raddr=0x20010018 rdata=0xD360D3C0
  2356.50ns WARNING  cocotb_bridge                      [sfu_mon] op00_RMSNORM pre-attn sfu_raddr=0x20010018 rdata=0xD360D3C0
  2357.50ns WARNING  cocotb_bridge                      [sfu_mon] op00_RMSNORM pre-attn sfu_raddr=0x2001001C rdata=0xCCC05200
  2358.50ns WARNING  cocotb_bridge                      [sfu_mon] op00_RMSNORM pre-attn sfu_raddr=0x2001001C rdata=0xCCC05200
  2359.50ns WARNING  cocotb_bridge                      [sfu_mon] op00_RMSNORM pre-attn sfu_raddr=0x20010020 rdata=0x56F055C0
  2360.50ns WARNING  cocotb_bridge                      [sfu_mon] op00_RMSNORM pre-attn sfu_raddr=0x20010020 rdata=0x56F055C0
  2361.50ns WARNING  cocotb_bridge                      [sfu_mon] op00_RMSNORM pre-attn sfu_raddr=0x20010024 rdata=0xD460D6E0
  2362.50ns WARNING  cocotb_bridge                      [sfu_mon] op00_RMSNORM pre-attn sfu_raddr=0x20010024 rdata=0xD460D6E0
  2363.50ns WARNING  cocotb_bridge                      [sfu_mon] op00_RMSNORM pre-attn sfu_raddr=0x20010028 rdata=0x5540CF80
  2364.50ns WARNING  cocotb_bridge                      [sfu_mon] op00_RMSNORM pre-attn AR addr=0x20010040
  2364.50ns WARNING  cocotb_bridge                      [sfu_mon] op00_RMSNORM pre-attn sfu_raddr=0x20010028 rdata=0x5540CF80
  2365.50ns WARNING  cocotb_bridge                      [sfu_mon] op00_RMSNORM pre-attn sfu_raddr=0x2001002C rdata=0x520055D0
  2366.50ns WARNING  cocotb_bridge                      [sfu_mon] op00_RMSNORM pre-attn R data=0x4d00ce805580cb8051e0d1e0d800d000cdc0d4e0d140561057b0d6d0d0805560547051e05660d470cd00d2005280c500c20053205780cd805300d510d620d1a0
  2366.50ns WARNING  cocotb_bridge                      [sfu_mon] op00_RMSNORM pre-attn sfu_raddr=0x2001002C rdata=0x520055D0
  2367.50ns WARNING  cocotb_bridge                      [sfu_mon] op00_RMSNORM pre-attn sfu_raddr=0x20010030 rdata=0x57605660
  2368.50ns WARNING  cocotb_bridge                      [sfu_mon] op00_RMSNORM pre-attn sfu_raddr=0x20010030 rdata=0x57605660
  2369.50ns WARNING  cocotb_bridge                      [sfu_mon] op00_RMSNORM pre-attn sfu_raddr=0x20010034 rdata=0x4A80D5E0
  2370.50ns WARNING  cocotb_bridge                      [sfu_mon] op00_RMSNORM pre-attn sfu_raddr=0x20010034 rdata=0x4A80D5E0
  2371.50ns WARNING  cocotb_bridge                      [sfu_mon] op00_RMSNORM pre-attn sfu_raddr=0x20010038 rdata=0xD440D6F0
  2372.50ns WARNING  cocotb_bridge                      [sfu_mon] op00_RMSNORM pre-attn sfu_raddr=0x20010038 rdata=0xD440D6F0
  2373.50ns WARNING  cocotb_bridge                      [sfu_mon] op00_RMSNORM pre-attn sfu_raddr=0x2001003C rdata=0x5300D660
  2374.50ns WARNING  cocotb_bridge                      [sfu_mon] op00_RMSNORM pre-attn sfu_raddr=0x2001003C rdata=0x5300D660
  2375.50ns WARNING  cocotb_bridge                      [sfu_mon] op00_RMSNORM pre-attn sfu_raddr=0x20010040 rdata=0xD620D1A0
  2376.50ns WARNING  cocotb_bridge                      [sfu_mon] op00_RMSNORM pre-attn sfu_raddr=0x20010040 rdata=0xD620D1A0
  2377.50ns WARNING  cocotb_bridge                      [sfu_mon] op00_RMSNORM pre-attn sfu_raddr=0x20010044 rdata=0x5300D510
  2378.50ns WARNING  cocotb_bridge                      [sfu_mon] op00_RMSNORM pre-attn sfu_raddr=0x20010044 rdata=0x5300D510
  2379.50ns WARNING  cocotb_bridge                      [sfu_mon] op00_RMSNORM pre-attn sfu_raddr=0x20010048 rdata=0x5780CD80
  2380.50ns WARNING  cocotb_bridge                      [sfu_mon] op00_RMSNORM pre-attn sfu_raddr=0x20010048 rdata=0x5780CD80
  2381.50ns WARNING  cocotb_bridge                      [sfu_mon] op00_RMSNORM pre-attn sfu_raddr=0x2001004C rdata=0xC2005320
  2382.50ns WARNING  cocotb_bridge                      [sfu_mon] op00_RMSNORM pre-attn sfu_raddr=0x2001004C rdata=0xC2005320
  2383.50ns WARNING  cocotb_bridge                      [sfu_mon] op00_RMSNORM pre-attn sfu_raddr=0x20010050 rdata=0x5280C500
  2384.50ns WARNING  cocotb_bridge                      [sfu_mon] op00_RMSNORM pre-attn sfu_raddr=0x20010050 rdata=0x5280C500
  2385.50ns WARNING  cocotb_bridge                      [sfu_mon] op00_RMSNORM pre-attn sfu_raddr=0x20010054 rdata=0xCD00D200
  2386.50ns WARNING  cocotb_bridge                      [sfu_mon] op00_RMSNORM pre-attn sfu_raddr=0x20010054 rdata=0xCD00D200
  2387.50ns WARNING  cocotb_bridge                      [sfu_mon] op00_RMSNORM pre-attn sfu_raddr=0x20010058 rdata=0x5660D470
  2388.50ns WARNING  cocotb_bridge                      [sfu_mon] op00_RMSNORM pre-attn sfu_raddr=0x20010058 rdata=0x5660D470
  2389.50ns WARNING  cocotb_bridge                      [sfu_mon] op00_RMSNORM pre-attn sfu_raddr=0x2001005C rdata=0x547051E0
  2390.50ns WARNING  cocotb_bridge                      [sfu_mon] op00_RMSNORM pre-attn sfu_raddr=0x2001005C rdata=0x547051E0
  2391.50ns WARNING  cocotb_bridge                      [sfu_mon] op00_RMSNORM pre-attn sfu_raddr=0x20010060 rdata=0xD0805560
  2392.50ns WARNING  cocotb_bridge                      [sfu_mon] op00_RMSNORM pre-attn sfu_raddr=0x20010060 rdata=0xD0805560
  2393.50ns WARNING  cocotb_bridge                      [sfu_mon] op00_RMSNORM pre-attn sfu_raddr=0x20010064 rdata=0x57B0D6D0
  2394.50ns WARNING  cocotb_bridge                      [sfu_mon] op00_RMSNORM pre-attn sfu_raddr=0x20010064 rdata=0x57B0D6D0
  2395.50ns WARNING  cocotb_bridge                      [sfu_mon] op00_RMSNORM pre-attn sfu_raddr=0x20010068 rdata=0xD1405610
  2396.50ns WARNING  cocotb_bridge                      [sfu_mon] op00_RMSNORM pre-attn AR addr=0x20010080
  2396.50ns WARNING  cocotb_bridge                      [sfu_mon] op00_RMSNORM pre-attn sfu_raddr=0x20010068 rdata=0xD1405610
  2397.50ns WARNING  cocotb_bridge                      [sfu_mon] op00_RMSNORM pre-attn sfu_raddr=0x2001006C rdata=0xCDC0D4E0
  2398.50ns WARNING  cocotb_bridge                      [sfu_mon] op00_RMSNORM pre-attn R data=0xd1c057b04a804e4053405060d800cc4050004dc055805600d12055a0420051c0ce805120d6a0d600cf00cfc05500d2e0d5d055305500d510c500d620d0c0c000
  2398.50ns WARNING  cocotb_bridge                      [sfu_mon] op00_RMSNORM pre-attn sfu_raddr=0x2001006C rdata=0xCDC0D4E0
  2399.50ns WARNING  cocotb_bridge                      [sfu_mon] op00_RMSNORM pre-attn sfu_raddr=0x20010070 rdata=0xD800D000
  2400.50ns WARNING  cocotb_bridge                      [sfu_mon] op00_RMSNORM pre-attn sfu_raddr=0x20010070 rdata=0xD800D000
  2401.50ns WARNING  cocotb_bridge                      [sfu_mon] op00_RMSNORM pre-attn sfu_raddr=0x20010074 rdata=0x51E0D1E0
  2402.50ns WARNING  cocotb_bridge                      [sfu_mon] op00_RMSNORM pre-attn sfu_raddr=0x20010074 rdata=0x51E0D1E0
  2403.50ns WARNING  cocotb_bridge                      [sfu_mon] op00_RMSNORM pre-attn sfu_raddr=0x20010078 rdata=0x5580CB80
  2404.50ns WARNING  cocotb_bridge                      [sfu_mon] op00_RMSNORM pre-attn sfu_raddr=0x20010078 rdata=0x5580CB80
  2405.50ns WARNING  cocotb_bridge                      [sfu_mon] op00_RMSNORM pre-attn sfu_raddr=0x2001007C rdata=0x4D00CE80
  2406.50ns WARNING  cocotb_bridge                      [sfu_mon] op00_RMSNORM pre-attn sfu_raddr=0x2001007C rdata=0x4D00CE80
  2407.50ns WARNING  cocotb_bridge                      [sfu_mon] op00_RMSNORM pre-attn sfu_raddr=0x20010080 rdata=0xD0C0C000
  2408.50ns WARNING  cocotb_bridge                      [sfu_mon] op00_RMSNORM pre-attn sfu_raddr=0x20010080 rdata=0xD0C0C000
  2409.50ns WARNING  cocotb_bridge                      [sfu_mon] op00_RMSNORM pre-attn sfu_raddr=0x20010084 rdata=0xC500D620
  2410.50ns WARNING  cocotb_bridge                      [sfu_mon] op00_RMSNORM pre-attn sfu_raddr=0x20010084 rdata=0xC500D620
  2411.50ns WARNING  cocotb_bridge                      [sfu_mon] op00_RMSNORM pre-attn sfu_raddr=0x20010088 rdata=0x5500D510
  2412.50ns WARNING  cocotb_bridge                      [sfu_mon] op00_RMSNORM pre-attn sfu_raddr=0x20010088 rdata=0x5500D510
  2413.50ns WARNING  cocotb_bridge                      [sfu_mon] op00_RMSNORM pre-attn sfu_raddr=0x2001008C rdata=0xD5D05530
  2414.50ns WARNING  cocotb_bridge                      [sfu_mon] op00_RMSNORM pre-attn sfu_raddr=0x2001008C rdata=0xD5D05530
  2415.50ns WARNING  cocotb_bridge                      [sfu_mon] op00_RMSNORM pre-attn sfu_raddr=0x20010090 rdata=0x5500D2E0
  2416.50ns WARNING  cocotb_bridge                      [sfu_mon] op00_RMSNORM pre-attn sfu_raddr=0x20010090 rdata=0x5500D2E0
  2417.50ns WARNING  cocotb_bridge                      [sfu_mon] op00_RMSNORM pre-attn sfu_raddr=0x20010094 rdata=0xCF00CFC0
  2418.50ns WARNING  cocotb_bridge                      [sfu_mon] op00_RMSNORM pre-attn sfu_raddr=0x20010094 rdata=0xCF00CFC0
  2419.50ns WARNING  cocotb_bridge                      [sfu_mon] op00_RMSNORM pre-attn sfu_raddr=0x20010098 rdata=0xD6A0D600
  2420.50ns WARNING  cocotb_bridge                      [sfu_mon] op00_RMSNORM pre-attn sfu_raddr=0x20010098 rdata=0xD6A0D600
  2421.50ns WARNING  cocotb_bridge                      [sfu_mon] op00_RMSNORM pre-attn sfu_raddr=0x2001009C rdata=0xCE805120
  2422.50ns WARNING  cocotb_bridge                      [sfu_mon] op00_RMSNORM pre-attn sfu_raddr=0x2001009C rdata=0xCE805120
  2423.50ns WARNING  cocotb_bridge                      [sfu_mon] op00_RMSNORM pre-attn sfu_raddr=0x200100A0 rdata=0x420051C0
  2424.50ns WARNING  cocotb_bridge                      [sfu_mon] op00_RMSNORM pre-attn sfu_raddr=0x200100A0 rdata=0x420051C0
  2425.50ns WARNING  cocotb_bridge                      [sfu_mon] op00_RMSNORM pre-attn sfu_raddr=0x200100A4 rdata=0xD12055A0
  2426.50ns WARNING  cocotb_bridge                      [sfu_mon] op00_RMSNORM pre-attn sfu_raddr=0x200100A4 rdata=0xD12055A0
  2427.50ns WARNING  cocotb_bridge                      [sfu_mon] op00_RMSNORM pre-attn sfu_raddr=0x200100A8 rdata=0x55805600
  2428.50ns WARNING  cocotb_bridge                      [sfu_mon] op00_RMSNORM pre-attn AR addr=0x200100C0
  2428.50ns WARNING  cocotb_bridge                      [sfu_mon] op00_RMSNORM pre-attn sfu_raddr=0x200100A8 rdata=0x55805600
  2429.50ns WARNING  cocotb_bridge                      [sfu_mon] op00_RMSNORM pre-attn sfu_raddr=0x200100AC rdata=0x50004DC0
  2430.50ns WARNING  cocotb_bridge                      [sfu_mon] op00_RMSNORM pre-attn R data=0x502053a0d610d4f0538056d0d380d3804e00d77057c05500cec05660d460d000522055b0c7005080d710d320d74057d0d42051004980d240cc00d340d360d1a0
  2430.50ns WARNING  cocotb_bridge                      [sfu_mon] op00_RMSNORM pre-attn sfu_raddr=0x200100AC rdata=0x50004DC0
  2431.50ns WARNING  cocotb_bridge                      [sfu_mon] op00_RMSNORM pre-attn sfu_raddr=0x200100B0 rdata=0xD800CC40
  2432.50ns WARNING  cocotb_bridge                      [sfu_mon] op00_RMSNORM pre-attn sfu_raddr=0x200100B0 rdata=0xD800CC40
  2433.50ns WARNING  cocotb_bridge                      [sfu_mon] op00_RMSNORM pre-attn sfu_raddr=0x200100B4 rdata=0x53405060
  2434.50ns WARNING  cocotb_bridge                      [sfu_mon] op00_RMSNORM pre-attn sfu_raddr=0x200100B4 rdata=0x53405060
  2435.50ns WARNING  cocotb_bridge                      [sfu_mon] op00_RMSNORM pre-attn sfu_raddr=0x200100B8 rdata=0x4A804E40
  2436.50ns WARNING  cocotb_bridge                      [sfu_mon] op00_RMSNORM pre-attn sfu_raddr=0x200100B8 rdata=0x4A804E40
  2437.50ns WARNING  cocotb_bridge                      [sfu_mon] op00_RMSNORM pre-attn sfu_raddr=0x200100BC rdata=0xD1C057B0
  2438.50ns WARNING  cocotb_bridge                      [sfu_mon] op00_RMSNORM pre-attn sfu_raddr=0x200100BC rdata=0xD1C057B0
  2439.50ns WARNING  cocotb_bridge                      [sfu_mon] op00_RMSNORM pre-attn sfu_raddr=0x200100C0 rdata=0xD360D1A0
  2440.50ns WARNING  cocotb_bridge                      [sfu_mon] op00_RMSNORM pre-attn sfu_raddr=0x200100C0 rdata=0xD360D1A0
  2441.50ns WARNING  cocotb_bridge                      [sfu_mon] op00_RMSNORM pre-attn sfu_raddr=0x200100C4 rdata=0xCC00D340
  2442.50ns WARNING  cocotb_bridge                      [sfu_mon] op00_RMSNORM pre-attn sfu_raddr=0x200100C4 rdata=0xCC00D340
  2443.50ns WARNING  cocotb_bridge                      [sfu_mon] op00_RMSNORM pre-attn sfu_raddr=0x200100C8 rdata=0x4980D240
  2444.50ns WARNING  cocotb_bridge                      [sfu_mon] op00_RMSNORM pre-attn sfu_raddr=0x200100C8 rdata=0x4980D240
  2445.50ns WARNING  cocotb_bridge                      [sfu_mon] op00_RMSNORM pre-attn sfu_raddr=0x200100CC rdata=0xD4205100
  2446.50ns WARNING  cocotb_bridge                      [sfu_mon] op00_RMSNORM pre-attn sfu_raddr=0x200100CC rdata=0xD4205100
  2447.50ns WARNING  cocotb_bridge                      [sfu_mon] op00_RMSNORM pre-attn sfu_raddr=0x200100D0 rdata=0xD74057D0
  2448.50ns WARNING  cocotb_bridge                      [sfu_mon] op00_RMSNORM pre-attn sfu_raddr=0x200100D0 rdata=0xD74057D0
  2449.50ns WARNING  cocotb_bridge                      [sfu_mon] op00_RMSNORM pre-attn sfu_raddr=0x200100D4 rdata=0xD710D320
  2450.50ns WARNING  cocotb_bridge                      [sfu_mon] op00_RMSNORM pre-attn sfu_raddr=0x200100D4 rdata=0xD710D320
  2451.50ns WARNING  cocotb_bridge                      [sfu_mon] op00_RMSNORM pre-attn sfu_raddr=0x200100D8 rdata=0xC7005080
  2452.50ns WARNING  cocotb_bridge                      [sfu_mon] op00_RMSNORM pre-attn sfu_raddr=0x200100D8 rdata=0xC7005080
  2453.50ns WARNING  cocotb_bridge                      [sfu_mon] op00_RMSNORM pre-attn sfu_raddr=0x200100DC rdata=0x522055B0
  2454.50ns WARNING  cocotb_bridge                      [sfu_mon] op00_RMSNORM pre-attn sfu_raddr=0x200100DC rdata=0x522055B0
  2455.50ns WARNING  cocotb_bridge                      [sfu_mon] op00_RMSNORM pre-attn sfu_raddr=0x200100E0 rdata=0xD460D000
  2456.50ns WARNING  cocotb_bridge                      [sfu_mon] op00_RMSNORM pre-attn sfu_raddr=0x200100E0 rdata=0xD460D000
  2457.50ns WARNING  cocotb_bridge                      [sfu_mon] op00_RMSNORM pre-attn sfu_raddr=0x200100E4 rdata=0xCEC05660
  2458.50ns WARNING  cocotb_bridge                      [sfu_mon] op00_RMSNORM pre-attn sfu_raddr=0x200100E4 rdata=0xCEC05660
  2459.50ns WARNING  cocotb_bridge                      [sfu_mon] op00_RMSNORM pre-attn sfu_raddr=0x200100E8 rdata=0x57C05500
  2460.50ns WARNING  cocotb_bridge                      [sfu_mon] op00_RMSNORM pre-attn AR addr=0x20010100
  2460.50ns WARNING  cocotb_bridge                      [sfu_mon] op00_RMSNORM pre-attn sfu_raddr=0x200100E8 rdata=0x57C05500
  2461.50ns WARNING  cocotb_bridge                      [sfu_mon] op00_RMSNORM pre-attn sfu_raddr=0x200100EC rdata=0x4E00D770
  2462.50ns WARNING  cocotb_bridge                      [sfu_mon] op00_RMSNORM pre-attn R data=0xccc04800c900d5104800d5b055a0d18052c0d0a0d360d3c04800d6d05400d590d6b0cc40d670d180d54056a0ce00d7e0cc00528052205430d52052e05470d490
  2462.50ns WARNING  cocotb_bridge                      [sfu_mon] op00_RMSNORM pre-attn sfu_raddr=0x200100EC rdata=0x4E00D770
  2463.50ns WARNING  cocotb_bridge                      [sfu_mon] op00_RMSNORM pre-attn sfu_raddr=0x200100F0 rdata=0xD380D380
  2464.50ns WARNING  cocotb_bridge                      [sfu_mon] op00_RMSNORM pre-attn sfu_raddr=0x200100F0 rdata=0xD380D380
  2465.50ns WARNING  cocotb_bridge                      [sfu_mon] op00_RMSNORM pre-attn sfu_raddr=0x200100F4 rdata=0x538056D0
  2466.50ns WARNING  cocotb_bridge                      [sfu_mon] op00_RMSNORM pre-attn sfu_raddr=0x200100F4 rdata=0x538056D0
  2467.50ns WARNING  cocotb_bridge                      [sfu_mon] op00_RMSNORM pre-attn sfu_raddr=0x200100F8 rdata=0xD610D4F0
  2468.50ns WARNING  cocotb_bridge                      [sfu_mon] op00_RMSNORM pre-attn sfu_raddr=0x200100F8 rdata=0xD610D4F0
  2469.50ns WARNING  cocotb_bridge                      [sfu_mon] op00_RMSNORM pre-attn sfu_raddr=0x200100FC rdata=0x502053A0
  2470.50ns WARNING  cocotb_bridge                      [sfu_mon] op00_RMSNORM pre-attn sfu_raddr=0x200100FC rdata=0x502053A0
  2471.50ns WARNING  cocotb_bridge                      [sfu_mon] op00_RMSNORM pre-attn sfu_raddr=0x20010100 rdata=0x5470D490
  2472.50ns WARNING  cocotb_bridge                      [sfu_mon] op00_RMSNORM pre-attn sfu_raddr=0x20010100 rdata=0x5470D490
  2473.50ns WARNING  cocotb_bridge                      [sfu_mon] op00_RMSNORM pre-attn sfu_raddr=0x20010104 rdata=0xD52052E0
  2474.50ns WARNING  cocotb_bridge                      [sfu_mon] op00_RMSNORM pre-attn sfu_raddr=0x20010104 rdata=0xD52052E0
  2475.50ns WARNING  cocotb_bridge                      [sfu_mon] op00_RMSNORM pre-attn sfu_raddr=0x20010108 rdata=0x52205430
  2476.50ns WARNING  cocotb_bridge                      [sfu_mon] op00_RMSNORM pre-attn sfu_raddr=0x20010108 rdata=0x52205430
  2477.50ns WARNING  cocotb_bridge                      [sfu_mon] op00_RMSNORM pre-attn sfu_raddr=0x2001010C rdata=0xCC005280
  2478.50ns WARNING  cocotb_bridge                      [sfu_mon] op00_RMSNORM pre-attn sfu_raddr=0x2001010C rdata=0xCC005280
  2479.50ns WARNING  cocotb_bridge                      [sfu_mon] op00_RMSNORM pre-attn sfu_raddr=0x20010110 rdata=0xCE00D7E0
  2480.50ns WARNING  cocotb_bridge                      [sfu_mon] op00_RMSNORM pre-attn sfu_raddr=0x20010110 rdata=0xCE00D7E0
  2481.50ns WARNING  cocotb_bridge                      [sfu_mon] op00_RMSNORM pre-attn sfu_raddr=0x20010114 rdata=0xD54056A0
  2482.50ns WARNING  cocotb_bridge                      [sfu_mon] op00_RMSNORM pre-attn sfu_raddr=0x20010114 rdata=0xD54056A0
  2483.50ns WARNING  cocotb_bridge                      [sfu_mon] op00_RMSNORM pre-attn sfu_raddr=0x20010118 rdata=0xD670D180
  2484.50ns WARNING  cocotb_bridge                      [sfu_mon] op00_RMSNORM pre-attn sfu_raddr=0x20010118 rdata=0xD670D180
  2485.50ns WARNING  cocotb_bridge                      [sfu_mon] op00_RMSNORM pre-attn sfu_raddr=0x2001011C rdata=0xD6B0CC40
  2486.50ns WARNING  cocotb_bridge                      [sfu_mon] op00_RMSNORM pre-attn sfu_raddr=0x2001011C rdata=0xD6B0CC40
  2487.50ns WARNING  cocotb_bridge                      [sfu_mon] op00_RMSNORM pre-attn sfu_raddr=0x20010120 rdata=0x5400D590
  2488.50ns WARNING  cocotb_bridge                      [sfu_mon] op00_RMSNORM pre-attn sfu_raddr=0x20010120 rdata=0x5400D590
  2489.50ns WARNING  cocotb_bridge                      [sfu_mon] op00_RMSNORM pre-attn sfu_raddr=0x20010124 rdata=0x4800D6D0
  2490.50ns WARNING  cocotb_bridge                      [sfu_mon] op00_RMSNORM pre-attn sfu_raddr=0x20010124 rdata=0x4800D6D0
  2491.50ns WARNING  cocotb_bridge                      [sfu_mon] op00_RMSNORM pre-attn sfu_raddr=0x20010128 rdata=0xD360D3C0
  2492.50ns WARNING  cocotb_bridge                      [sfu_mon] op00_RMSNORM pre-attn AR addr=0x20010140
  2492.50ns WARNING  cocotb_bridge                      [sfu_mon] op00_RMSNORM pre-attn sfu_raddr=0x20010128 rdata=0xD360D3C0
  2493.50ns WARNING  cocotb_bridge                      [sfu_mon] op00_RMSNORM pre-attn sfu_raddr=0x2001012C rdata=0x52C0D0A0
  2494.50ns WARNING  cocotb_bridge                      [sfu_mon] op00_RMSNORM pre-attn R data=0xd0a04d00d610d0804f00cd00d770c40053a04400d700cf405320c9805670cdc0c2005790d38047005590ca00d0805200d280d450d12053a05040ce00d6705780
  2494.50ns WARNING  cocotb_bridge                      [sfu_mon] op00_RMSNORM pre-attn sfu_raddr=0x2001012C rdata=0x52C0D0A0
  2495.50ns WARNING  cocotb_bridge                      [sfu_mon] op00_RMSNORM pre-attn sfu_raddr=0x20010130 rdata=0x55A0D180
  2496.50ns WARNING  cocotb_bridge                      [sfu_mon] op00_RMSNORM pre-attn sfu_raddr=0x20010130 rdata=0x55A0D180
  2497.50ns WARNING  cocotb_bridge                      [sfu_mon] op00_RMSNORM pre-attn sfu_raddr=0x20010134 rdata=0x4800D5B0
  2498.50ns WARNING  cocotb_bridge                      [sfu_mon] op00_RMSNORM pre-attn sfu_raddr=0x20010134 rdata=0x4800D5B0
  2499.50ns WARNING  cocotb_bridge                      [sfu_mon] op00_RMSNORM pre-attn sfu_raddr=0x20010138 rdata=0xC900D510
  2500.50ns WARNING  cocotb_bridge                      [sfu_mon] op00_RMSNORM pre-attn sfu_raddr=0x20010138 rdata=0xC900D510
  2501.50ns WARNING  cocotb_bridge                      [sfu_mon] op00_RMSNORM pre-attn sfu_raddr=0x2001013C rdata=0xCCC04800
  2502.50ns WARNING  cocotb_bridge                      [sfu_mon] op00_RMSNORM pre-attn sfu_raddr=0x2001013C rdata=0xCCC04800
  2503.50ns WARNING  cocotb_bridge                      [sfu_mon] op00_RMSNORM pre-attn sfu_raddr=0x20010140 rdata=0xD6705780
  2504.50ns WARNING  cocotb_bridge                      [sfu_mon] op00_RMSNORM pre-attn sfu_raddr=0x20010140 rdata=0xD6705780
  2505.50ns WARNING  cocotb_bridge                      [sfu_mon] op00_RMSNORM pre-attn sfu_raddr=0x20010144 rdata=0x5040CE00
  2506.50ns WARNING  cocotb_bridge                      [sfu_mon] op00_RMSNORM pre-attn sfu_raddr=0x20010144 rdata=0x5040CE00
  2507.50ns WARNING  cocotb_bridge                      [sfu_mon] op00_RMSNORM pre-attn sfu_raddr=0x20010148 rdata=0xD12053A0
  2508.50ns WARNING  cocotb_bridge                      [sfu_mon] op00_RMSNORM pre-attn sfu_raddr=0x20010148 rdata=0xD12053A0
  2509.50ns WARNING  cocotb_bridge                      [sfu_mon] op00_RMSNORM pre-attn sfu_raddr=0x2001014C rdata=0xD280D450
  2510.50ns WARNING  cocotb_bridge                      [sfu_mon] op00_RMSNORM pre-attn sfu_raddr=0x2001014C rdata=0xD280D450
  2511.50ns WARNING  cocotb_bridge                      [sfu_mon] op00_RMSNORM pre-attn sfu_raddr=0x20010150 rdata=0xD0805200
  2512.50ns WARNING  cocotb_bridge                      [sfu_mon] op00_RMSNORM pre-attn sfu_raddr=0x20010150 rdata=0xD0805200
  2513.50ns WARNING  cocotb_bridge                      [sfu_mon] op00_RMSNORM pre-attn sfu_raddr=0x20010154 rdata=0x5590CA00
  2514.50ns WARNING  cocotb_bridge                      [sfu_mon] op00_RMSNORM pre-attn sfu_raddr=0x20010154 rdata=0x5590CA00
  2515.50ns WARNING  cocotb_bridge                      [sfu_mon] op00_RMSNORM pre-attn sfu_raddr=0x20010158 rdata=0xD3804700
  2516.50ns WARNING  cocotb_bridge                      [sfu_mon] op00_RMSNORM pre-attn sfu_raddr=0x20010158 rdata=0xD3804700
  2517.50ns WARNING  cocotb_bridge                      [sfu_mon] op00_RMSNORM pre-attn sfu_raddr=0x2001015C rdata=0xC2005790
  2518.50ns WARNING  cocotb_bridge                      [sfu_mon] op00_RMSNORM pre-attn sfu_raddr=0x2001015C rdata=0xC2005790
  2519.50ns WARNING  cocotb_bridge                      [sfu_mon] op00_RMSNORM pre-attn sfu_raddr=0x20010160 rdata=0x5670CDC0
  2520.50ns WARNING  cocotb_bridge                      [sfu_mon] op00_RMSNORM pre-attn sfu_raddr=0x20010160 rdata=0x5670CDC0
  2521.50ns WARNING  cocotb_bridge                      [sfu_mon] op00_RMSNORM pre-attn sfu_raddr=0x20010164 rdata=0x5320C980
  2522.50ns WARNING  cocotb_bridge                      [sfu_mon] op00_RMSNORM pre-attn sfu_raddr=0x20010164 rdata=0x5320C980
  2523.50ns WARNING  cocotb_bridge                      [sfu_mon] op00_RMSNORM pre-attn sfu_raddr=0x20010168 rdata=0xD700CF40
  2524.50ns WARNING  cocotb_bridge                      [sfu_mon] op00_RMSNORM pre-attn AR addr=0x20010180
  2524.50ns WARNING  cocotb_bridge                      [sfu_mon] op00_RMSNORM pre-attn sfu_raddr=0x20010168 rdata=0xD700CF40
  2525.50ns WARNING  cocotb_bridge                      [sfu_mon] op00_RMSNORM pre-attn sfu_raddr=0x2001016C rdata=0x53A04400
  2526.50ns WARNING  cocotb_bridge                      [sfu_mon] op00_RMSNORM pre-attn R data=0xd440d770d770d5e0d460cc40c9804ec0d0205220ca80d040d0804f80d520c90050e04ec055005550d1c051a0cc40cfc0cd8054e0d360ce8053005720d7405280
  2526.50ns WARNING  cocotb_bridge                      [sfu_mon] op00_RMSNORM pre-attn sfu_raddr=0x2001016C rdata=0x53A04400
  2527.50ns WARNING  cocotb_bridge                      [sfu_mon] op00_RMSNORM pre-attn sfu_raddr=0x20010170 rdata=0xD770C400
  2528.50ns WARNING  cocotb_bridge                      [sfu_mon] op00_RMSNORM pre-attn sfu_raddr=0x20010170 rdata=0xD770C400
  2529.50ns WARNING  cocotb_bridge                      [sfu_mon] op00_RMSNORM pre-attn sfu_raddr=0x20010174 rdata=0x4F00CD00
  2530.50ns WARNING  cocotb_bridge                      [sfu_mon] op00_RMSNORM pre-attn sfu_raddr=0x20010174 rdata=0x4F00CD00
  2531.50ns WARNING  cocotb_bridge                      [sfu_mon] op00_RMSNORM pre-attn sfu_raddr=0x20010178 rdata=0xD610D080
  2532.50ns WARNING  cocotb_bridge                      [sfu_mon] op00_RMSNORM pre-attn sfu_raddr=0x20010178 rdata=0xD610D080
  2533.50ns WARNING  cocotb_bridge                      [sfu_mon] op00_RMSNORM pre-attn sfu_raddr=0x2001017C rdata=0xD0A04D00
  2534.50ns WARNING  cocotb_bridge                      [sfu_mon] op00_RMSNORM pre-attn sfu_raddr=0x2001017C rdata=0xD0A04D00
  2535.50ns WARNING  cocotb_bridge                      [sfu_mon] op00_RMSNORM pre-attn sfu_raddr=0x20010180 rdata=0xD7405280
  2536.50ns WARNING  cocotb_bridge                      [sfu_mon] op00_RMSNORM pre-attn sfu_raddr=0x20010180 rdata=0xD7405280
  2537.50ns WARNING  cocotb_bridge                      [sfu_mon] op00_RMSNORM pre-attn sfu_raddr=0x20010184 rdata=0x53005720
  2538.50ns WARNING  cocotb_bridge                      [sfu_mon] op00_RMSNORM pre-attn sfu_raddr=0x20010184 rdata=0x53005720
  2539.50ns WARNING  cocotb_bridge                      [sfu_mon] op00_RMSNORM pre-attn sfu_raddr=0x20010188 rdata=0xD360CE80
  2540.50ns WARNING  cocotb_bridge                      [sfu_mon] op00_RMSNORM pre-attn sfu_raddr=0x20010188 rdata=0xD360CE80
  2541.50ns WARNING  cocotb_bridge                      [sfu_mon] op00_RMSNORM pre-attn sfu_raddr=0x2001018C rdata=0xCD8054E0
  2542.50ns WARNING  cocotb_bridge                      [sfu_mon] op00_RMSNORM pre-attn sfu_raddr=0x2001018C rdata=0xCD8054E0
  2543.50ns WARNING  cocotb_bridge                      [sfu_mon] op00_RMSNORM pre-attn sfu_raddr=0x20010190 rdata=0xCC40CFC0
  2544.50ns WARNING  cocotb_bridge                      [sfu_mon] op00_RMSNORM pre-attn sfu_raddr=0x20010190 rdata=0xCC40CFC0
  2545.50ns WARNING  cocotb_bridge                      [sfu_mon] op00_RMSNORM pre-attn sfu_raddr=0x20010194 rdata=0xD1C051A0
  2546.50ns WARNING  cocotb_bridge                      [sfu_mon] op00_RMSNORM pre-attn sfu_raddr=0x20010194 rdata=0xD1C051A0
  2547.50ns WARNING  cocotb_bridge                      [sfu_mon] op00_RMSNORM pre-attn sfu_raddr=0x20010198 rdata=0x55005550
  2548.50ns WARNING  cocotb_bridge                      [sfu_mon] op00_RMSNORM pre-attn sfu_raddr=0x20010198 rdata=0x55005550
  2549.50ns WARNING  cocotb_bridge                      [sfu_mon] op00_RMSNORM pre-attn sfu_raddr=0x2001019C rdata=0x50E04EC0
  2550.50ns WARNING  cocotb_bridge                      [sfu_mon] op00_RMSNORM pre-attn sfu_raddr=0x2001019C rdata=0x50E04EC0
  2551.50ns WARNING  cocotb_bridge                      [sfu_mon] op00_RMSNORM pre-attn sfu_raddr=0x200101A0 rdata=0xD520C900
  2552.50ns WARNING  cocotb_bridge                      [sfu_mon] op00_RMSNORM pre-attn sfu_raddr=0x200101A0 rdata=0xD520C900
  2553.50ns WARNING  cocotb_bridge                      [sfu_mon] op00_RMSNORM pre-attn sfu_raddr=0x200101A4 rdata=0xD0804F80
  2554.50ns WARNING  cocotb_bridge                      [sfu_mon] op00_RMSNORM pre-attn sfu_raddr=0x200101A4 rdata=0xD0804F80
  2555.50ns WARNING  cocotb_bridge                      [sfu_mon] op00_RMSNORM pre-attn sfu_raddr=0x200101A8 rdata=0xCA80D040
  2556.50ns WARNING  cocotb_bridge                      [sfu_mon] op00_RMSNORM pre-attn AR addr=0x200101C0
  2556.50ns WARNING  cocotb_bridge                      [sfu_mon] op00_RMSNORM pre-attn sfu_raddr=0x200101A8 rdata=0xCA80D040
  2557.50ns WARNING  cocotb_bridge                      [sfu_mon] op00_RMSNORM pre-attn sfu_raddr=0x200101AC rdata=0xD0205220
  2558.50ns WARNING  cocotb_bridge                      [sfu_mon] op00_RMSNORM pre-attn R data=0xd790d5705530d2a0cc40d790d760d400546056905430d360d6904d00d500cd805440d680d22042005020470050c0510057c056d0d3c0d280d2a0d50055705610
  2558.50ns WARNING  cocotb_bridge                      [sfu_mon] op00_RMSNORM pre-attn sfu_raddr=0x200101AC rdata=0xD0205220
  2559.50ns WARNING  cocotb_bridge                      [sfu_mon] op00_RMSNORM pre-attn sfu_raddr=0x200101B0 rdata=0xC9804EC0
  2560.50ns WARNING  cocotb_bridge                      [sfu_mon] op00_RMSNORM pre-attn sfu_raddr=0x200101B0 rdata=0xC9804EC0
  2561.50ns WARNING  cocotb_bridge                      [sfu_mon] op00_RMSNORM pre-attn sfu_raddr=0x200101B4 rdata=0xD460CC40
  2562.50ns WARNING  cocotb_bridge                      [sfu_mon] op00_RMSNORM pre-attn sfu_raddr=0x200101B4 rdata=0xD460CC40
  2563.50ns WARNING  cocotb_bridge                      [sfu_mon] op00_RMSNORM pre-attn sfu_raddr=0x200101B8 rdata=0xD770D5E0
  2564.50ns WARNING  cocotb_bridge                      [sfu_mon] op00_RMSNORM pre-attn sfu_raddr=0x200101B8 rdata=0xD770D5E0
  2565.50ns WARNING  cocotb_bridge                      [sfu_mon] op00_RMSNORM pre-attn sfu_raddr=0x200101BC rdata=0xD440D770
  2566.50ns WARNING  cocotb_bridge                      [sfu_mon] op00_RMSNORM pre-attn sfu_raddr=0x200101BC rdata=0xD440D770
  2567.50ns WARNING  cocotb_bridge                      [sfu_mon] op00_RMSNORM pre-attn sfu_raddr=0x200101C0 rdata=0x55705610
  2568.50ns WARNING  cocotb_bridge                      [sfu_mon] op00_RMSNORM pre-attn sfu_raddr=0x200101C0 rdata=0x55705610
  2569.50ns WARNING  cocotb_bridge                      [sfu_mon] op00_RMSNORM pre-attn sfu_raddr=0x200101C4 rdata=0xD2A0D500
  2570.50ns WARNING  cocotb_bridge                      [sfu_mon] op00_RMSNORM pre-attn sfu_raddr=0x200101C4 rdata=0xD2A0D500
  2571.50ns WARNING  cocotb_bridge                      [sfu_mon] op00_RMSNORM pre-attn sfu_raddr=0x200101C8 rdata=0xD3C0D280
  2572.50ns WARNING  cocotb_bridge                      [sfu_mon] op00_RMSNORM pre-attn sfu_raddr=0x200101C8 rdata=0xD3C0D280
  2573.50ns WARNING  cocotb_bridge                      [sfu_mon] op00_RMSNORM pre-attn sfu_raddr=0x200101CC rdata=0x57C056D0
  2574.50ns WARNING  cocotb_bridge                      [sfu_mon] op00_RMSNORM pre-attn sfu_raddr=0x200101CC rdata=0x57C056D0
  2575.50ns WARNING  cocotb_bridge                      [sfu_mon] op00_RMSNORM pre-attn sfu_raddr=0x200101D0 rdata=0x50C05100
  2576.50ns WARNING  cocotb_bridge                      [sfu_mon] op00_RMSNORM pre-attn sfu_raddr=0x200101D0 rdata=0x50C05100
  2577.50ns WARNING  cocotb_bridge                      [sfu_mon] op00_RMSNORM pre-attn sfu_raddr=0x200101D4 rdata=0x50204700
  2578.50ns WARNING  cocotb_bridge                      [sfu_mon] op00_RMSNORM pre-attn sfu_raddr=0x200101D4 rdata=0x50204700
  2579.50ns WARNING  cocotb_bridge                      [sfu_mon] op00_RMSNORM pre-attn sfu_raddr=0x200101D8 rdata=0xD2204200
  2580.50ns WARNING  cocotb_bridge                      [sfu_mon] op00_RMSNORM pre-attn sfu_raddr=0x200101D8 rdata=0xD2204200
  2581.50ns WARNING  cocotb_bridge                      [sfu_mon] op00_RMSNORM pre-attn sfu_raddr=0x200101DC rdata=0x5440D680
  2582.50ns WARNING  cocotb_bridge                      [sfu_mon] op00_RMSNORM pre-attn sfu_raddr=0x200101DC rdata=0x5440D680
  2583.50ns WARNING  cocotb_bridge                      [sfu_mon] op00_RMSNORM pre-attn sfu_raddr=0x200101E0 rdata=0xD500CD80
  2584.50ns WARNING  cocotb_bridge                      [sfu_mon] op00_RMSNORM pre-attn sfu_raddr=0x200101E0 rdata=0xD500CD80
  2585.50ns WARNING  cocotb_bridge                      [sfu_mon] op00_RMSNORM pre-attn sfu_raddr=0x200101E4 rdata=0xD6904D00
  2586.50ns WARNING  cocotb_bridge                      [sfu_mon] op00_RMSNORM pre-attn sfu_raddr=0x200101E4 rdata=0xD6904D00
  2587.50ns WARNING  cocotb_bridge                      [sfu_mon] op00_RMSNORM pre-attn sfu_raddr=0x200101E8 rdata=0x5430D360
  2588.50ns WARNING  cocotb_bridge                      [sfu_mon] op00_RMSNORM pre-attn AR addr=0x20010200
  2588.50ns WARNING  cocotb_bridge                      [sfu_mon] op00_RMSNORM pre-attn sfu_raddr=0x200101E8 rdata=0x5430D360
  2589.50ns WARNING  cocotb_bridge                      [sfu_mon] op00_RMSNORM pre-attn sfu_raddr=0x200101EC rdata=0x54605690
  2590.50ns WARNING  cocotb_bridge                      [sfu_mon] op00_RMSNORM pre-attn R data=0x563054e0d430d710d2205700d0e05640d6d0536057004c80ccc0d7d0d4a054d0d590cb8056f0d6a0c000cf80d5b04900d5404500d5d0d460cc80d260d7b05040
  2590.50ns WARNING  cocotb_bridge                      [sfu_mon] op00_RMSNORM pre-attn sfu_raddr=0x200101EC rdata=0x54605690
  2591.50ns WARNING  cocotb_bridge                      [sfu_mon] op00_RMSNORM pre-attn sfu_raddr=0x200101F0 rdata=0xD760D400
  2592.50ns WARNING  cocotb_bridge                      [sfu_mon] op00_RMSNORM pre-attn sfu_raddr=0x200101F0 rdata=0xD760D400
  2593.50ns WARNING  cocotb_bridge                      [sfu_mon] op00_RMSNORM pre-attn sfu_raddr=0x200101F4 rdata=0xCC40D790
  2594.50ns WARNING  cocotb_bridge                      [sfu_mon] op00_RMSNORM pre-attn sfu_raddr=0x200101F4 rdata=0xCC40D790
  2595.50ns WARNING  cocotb_bridge                      [sfu_mon] op00_RMSNORM pre-attn sfu_raddr=0x200101F8 rdata=0x5530D2A0
  2596.50ns WARNING  cocotb_bridge                      [sfu_mon] op00_RMSNORM pre-attn sfu_raddr=0x200101F8 rdata=0x5530D2A0
  2597.50ns WARNING  cocotb_bridge                      [sfu_mon] op00_RMSNORM pre-attn sfu_raddr=0x200101FC rdata=0xD790D570
  2598.50ns WARNING  cocotb_bridge                      [sfu_mon] op00_RMSNORM pre-attn sfu_raddr=0x200101FC rdata=0xD790D570
  2599.50ns WARNING  cocotb_bridge                      [sfu_mon] op00_RMSNORM pre-attn sfu_raddr=0x20010200 rdata=0xD7B05040
  2600.50ns WARNING  cocotb_bridge                      [sfu_mon] op00_RMSNORM pre-attn sfu_raddr=0x20010200 rdata=0xD7B05040
  2601.50ns WARNING  cocotb_bridge                      [sfu_mon] op00_RMSNORM pre-attn sfu_raddr=0x20010204 rdata=0xCC80D260
  2602.50ns WARNING  cocotb_bridge                      [sfu_mon] op00_RMSNORM pre-attn sfu_raddr=0x20010204 rdata=0xCC80D260
  2603.50ns WARNING  cocotb_bridge                      [sfu_mon] op00_RMSNORM pre-attn sfu_raddr=0x20010208 rdata=0xD5D0D460
  2604.50ns WARNING  cocotb_bridge                      [sfu_mon] op00_RMSNORM pre-attn sfu_raddr=0x20010208 rdata=0xD5D0D460
  2605.50ns WARNING  cocotb_bridge                      [sfu_mon] op00_RMSNORM pre-attn sfu_raddr=0x2001020C rdata=0xD5404500
  2606.50ns WARNING  cocotb_bridge                      [sfu_mon] op00_RMSNORM pre-attn sfu_raddr=0x2001020C rdata=0xD5404500
  2607.50ns WARNING  cocotb_bridge                      [sfu_mon] op00_RMSNORM pre-attn sfu_raddr=0x20010210 rdata=0xD5B04900
  2608.50ns WARNING  cocotb_bridge                      [sfu_mon] op00_RMSNORM pre-attn sfu_raddr=0x20010210 rdata=0xD5B04900
  2609.50ns WARNING  cocotb_bridge                      [sfu_mon] op00_RMSNORM pre-attn sfu_raddr=0x20010214 rdata=0xC000CF80
  2610.50ns WARNING  cocotb_bridge                      [sfu_mon] op00_RMSNORM pre-attn sfu_raddr=0x20010214 rdata=0xC000CF80
  2611.50ns WARNING  cocotb_bridge                      [sfu_mon] op00_RMSNORM pre-attn sfu_raddr=0x20010218 rdata=0x56F0D6A0
  2612.50ns WARNING  cocotb_bridge                      [sfu_mon] op00_RMSNORM pre-attn sfu_raddr=0x20010218 rdata=0x56F0D6A0
  2613.50ns WARNING  cocotb_bridge                      [sfu_mon] op00_RMSNORM pre-attn sfu_raddr=0x2001021C rdata=0xD590CB80
  2614.50ns WARNING  cocotb_bridge                      [sfu_mon] op00_RMSNORM pre-attn sfu_raddr=0x2001021C rdata=0xD590CB80
  2615.50ns WARNING  cocotb_bridge                      [sfu_mon] op00_RMSNORM pre-attn sfu_raddr=0x20010220 rdata=0xD4A054D0
  2616.50ns WARNING  cocotb_bridge                      [sfu_mon] op00_RMSNORM pre-attn sfu_raddr=0x20010220 rdata=0xD4A054D0
  2617.50ns WARNING  cocotb_bridge                      [sfu_mon] op00_RMSNORM pre-attn sfu_raddr=0x20010224 rdata=0xCCC0D7D0
  2618.50ns WARNING  cocotb_bridge                      [sfu_mon] op00_RMSNORM pre-attn sfu_raddr=0x20010224 rdata=0xCCC0D7D0
  2619.50ns WARNING  cocotb_bridge                      [sfu_mon] op00_RMSNORM pre-attn sfu_raddr=0x20010228 rdata=0x57004C80
  2620.50ns WARNING  cocotb_bridge                      [sfu_mon] op00_RMSNORM pre-attn AR addr=0x20010240
  2620.50ns WARNING  cocotb_bridge                      [sfu_mon] op00_RMSNORM pre-attn sfu_raddr=0x20010228 rdata=0x57004C80
  2621.50ns WARNING  cocotb_bridge                      [sfu_mon] op00_RMSNORM pre-attn sfu_raddr=0x2001022C rdata=0xD6D05360
  2622.50ns WARNING  cocotb_bridge                      [sfu_mon] op00_RMSNORM pre-attn R data=0xc90055a0d360ccc00000c800d040d3404200d7e056c0528057105280c8004f805220400055f056c0564052a0d5a057d05400d68055104ec0ccc0d5b0d0a056b0
  2622.50ns WARNING  cocotb_bridge                      [sfu_mon] op00_RMSNORM pre-attn sfu_raddr=0x2001022C rdata=0xD6D05360
  2623.50ns WARNING  cocotb_bridge                      [sfu_mon] op00_RMSNORM pre-attn sfu_raddr=0x20010230 rdata=0xD0E05640
  2624.50ns WARNING  cocotb_bridge                      [sfu_mon] op00_RMSNORM pre-attn sfu_raddr=0x20010230 rdata=0xD0E05640
  2625.50ns WARNING  cocotb_bridge                      [sfu_mon] op00_RMSNORM pre-attn sfu_raddr=0x20010234 rdata=0xD2205700
  2626.50ns WARNING  cocotb_bridge                      [sfu_mon] op00_RMSNORM pre-attn sfu_raddr=0x20010234 rdata=0xD2205700
  2627.50ns WARNING  cocotb_bridge                      [sfu_mon] op00_RMSNORM pre-attn sfu_raddr=0x20010238 rdata=0xD430D710
  2628.50ns WARNING  cocotb_bridge                      [sfu_mon] op00_RMSNORM pre-attn sfu_raddr=0x20010238 rdata=0xD430D710
  2629.50ns WARNING  cocotb_bridge                      [sfu_mon] op00_RMSNORM pre-attn sfu_raddr=0x2001023C rdata=0x563054E0
  2630.50ns WARNING  cocotb_bridge                      [sfu_mon] op00_RMSNORM pre-attn sfu_raddr=0x2001023C rdata=0x563054E0
  2631.50ns WARNING  cocotb_bridge                      [sfu_mon] op00_RMSNORM pre-attn sfu_raddr=0x20010240 rdata=0xD0A056B0
  2632.50ns WARNING  cocotb_bridge                      [sfu_mon] op00_RMSNORM pre-attn sfu_raddr=0x20010240 rdata=0xD0A056B0
  2633.50ns WARNING  cocotb_bridge                      [sfu_mon] op00_RMSNORM pre-attn sfu_raddr=0x20010244 rdata=0xCCC0D5B0
  2634.50ns WARNING  cocotb_bridge                      [sfu_mon] op00_RMSNORM pre-attn sfu_raddr=0x20010244 rdata=0xCCC0D5B0
  2635.50ns WARNING  cocotb_bridge                      [sfu_mon] op00_RMSNORM pre-attn sfu_raddr=0x20010248 rdata=0x55104EC0
  2636.50ns WARNING  cocotb_bridge                      [sfu_mon] op00_RMSNORM pre-attn sfu_raddr=0x20010248 rdata=0x55104EC0
  2637.50ns WARNING  cocotb_bridge                      [sfu_mon] op00_RMSNORM pre-attn sfu_raddr=0x2001024C rdata=0x5400D680
  2638.50ns WARNING  cocotb_bridge                      [sfu_mon] op00_RMSNORM pre-attn sfu_raddr=0x2001024C rdata=0x5400D680
  2639.50ns WARNING  cocotb_bridge                      [sfu_mon] op00_RMSNORM pre-attn sfu_raddr=0x20010250 rdata=0xD5A057D0
  2640.50ns WARNING  cocotb_bridge                      [sfu_mon] op00_RMSNORM pre-attn sfu_raddr=0x20010250 rdata=0xD5A057D0
  2641.50ns WARNING  cocotb_bridge                      [sfu_mon] op00_RMSNORM pre-attn sfu_raddr=0x20010254 rdata=0x564052A0
  2642.50ns WARNING  cocotb_bridge                      [sfu_mon] op00_RMSNORM pre-attn sfu_raddr=0x20010254 rdata=0x564052A0
  2643.50ns WARNING  cocotb_bridge                      [sfu_mon] op00_RMSNORM pre-attn sfu_raddr=0x20010258 rdata=0x55F056C0
  2644.50ns WARNING  cocotb_bridge                      [sfu_mon] op00_RMSNORM pre-attn sfu_raddr=0x20010258 rdata=0x55F056C0
  2645.50ns WARNING  cocotb_bridge                      [sfu_mon] op00_RMSNORM pre-attn sfu_raddr=0x2001025C rdata=0x52204000
  2646.50ns WARNING  cocotb_bridge                      [sfu_mon] op00_RMSNORM pre-attn sfu_raddr=0x2001025C rdata=0x52204000
  2647.50ns WARNING  cocotb_bridge                      [sfu_mon] op00_RMSNORM pre-attn sfu_raddr=0x20010260 rdata=0xC8004F80
  2648.50ns WARNING  cocotb_bridge                      [sfu_mon] op00_RMSNORM pre-attn sfu_raddr=0x20010260 rdata=0xC8004F80
  2649.50ns WARNING  cocotb_bridge                      [sfu_mon] op00_RMSNORM pre-attn sfu_raddr=0x20010264 rdata=0x57105280
  2650.50ns WARNING  cocotb_bridge                      [sfu_mon] op00_RMSNORM pre-attn sfu_raddr=0x20010264 rdata=0x57105280
  2651.50ns WARNING  cocotb_bridge                      [sfu_mon] op00_RMSNORM pre-attn sfu_raddr=0x20010268 rdata=0x56C05280
  2652.50ns WARNING  cocotb_bridge                      [sfu_mon] op00_RMSNORM pre-attn AR addr=0x20010280
  2652.50ns WARNING  cocotb_bridge                      [sfu_mon] op00_RMSNORM pre-attn sfu_raddr=0x20010268 rdata=0x56C05280
  2653.50ns WARNING  cocotb_bridge                      [sfu_mon] op00_RMSNORM pre-attn sfu_raddr=0x2001026C rdata=0x4200D7E0
  2654.50ns WARNING  cocotb_bridge                      [sfu_mon] op00_RMSNORM pre-attn R data=0x51c056a0d1e0ce40cd80d4e0d7405740bc00d220500057f0d1e0d4704fc0d720d260ca8056104600d6304e40d56055004c40440051804e804fc05360cfc0ca80
  2654.50ns WARNING  cocotb_bridge                      [sfu_mon] op00_RMSNORM pre-attn sfu_raddr=0x2001026C rdata=0x4200D7E0
 23347.50ns WARNING  cocotb_bridge                      [BLK0] op 1: weight 5242880 B exceeds 64 KB weight buffer; applying single-tile workaround
 23475.50ns WARNING  cocotb_bridge                      [diag] op01_Q_proj MMUL: input SRAM at 0x20010000 = 02000000000000000000000000000000
[MXU_FSM] state=1 busy=0 done=0 error=0 t=23617000
[MXU_FSM] state=2 busy=0 done=0 error=0 t=23618000
[MXU_FSM] state=3 busy=0 done=0 error=1 t=23619000
[MXU_FSM] state=4 busy=0 done=0 error=0 t=23620000
[MXU_FSM] state=5 busy=1 done=0 error=0 t=23687000
[MXU_FSM] state=6 busy=0 done=1 error=0 t=23689000
[MXU_FSM] state=0 busy=0 done=0 error=0 t=23690000
 24155.50ns WARNING  cocotb_bridge                      [BLK0] op 2: weight 327680 B exceeds 64 KB weight buffer; applying single-tile workaround
 24283.50ns WARNING  cocotb_bridge                      [diag] op02_K_proj MMUL: input SRAM at 0x20010000 = 02000000000000000000000000000000
[MXU_FSM] state=1 busy=0 done=0 error=0 t=24425000
[MXU_FSM] state=2 busy=0 done=0 error=0 t=24426000
[MXU_FSM] state=3 busy=0 done=0 error=1 t=24427000
[MXU_FSM] state=4 busy=0 done=0 error=0 t=24428000
[MXU_FSM] state=5 busy=1 done=0 error=0 t=24495000
[MXU_FSM] state=6 busy=0 done=1 error=0 t=24497000
[MXU_FSM] state=0 busy=0 done=0 error=0 t=24498000
 24963.50ns WARNING  cocotb_bridge                      [BLK0] op 3: weight 327680 B exceeds 64 KB weight buffer; applying single-tile workaround
 25091.50ns WARNING  cocotb_bridge                      [diag] op03_V_proj MMUL: input SRAM at 0x20010000 = 02000000000000000000000000000000
[MXU_FSM] state=1 busy=0 done=0 error=0 t=25233000
[MXU_FSM] state=2 busy=0 done=0 error=0 t=25234000
[MXU_FSM] state=3 busy=0 done=0 error=1 t=25235000
[MXU_FSM] state=4 busy=0 done=0 error=0 t=25236000
[MXU_FSM] state=5 busy=1 done=0 error=0 t=25303000
[MXU_FSM] state=6 busy=0 done=1 error=0 t=25305000
[MXU_FSM] state=0 busy=0 done=0 error=0 t=25306000
 26059.50ns WARNING  cocotb_bridge                      [diag] op04_ROPE: input/output overlap detected (0x20030000-0x20032200 vs 0x20031000-0x20033200); copying input to 0x20040000
 26603.50ns WARNING  cocotb_bridge                      [diag] op04_ROPE: input SRAM at 0x20040000 = a8d948dce8d9d05400d600c7404ce0d2
 26627.50ns WARNING  cocotb_bridge                      [sfu_mon] op04_ROPE sfu_raddr=0x20040000 rdata=0xDC48D9A8
 26628.50ns WARNING  cocotb_bridge                      [sfu_mon] op04_ROPE sfu_raddr=0x20040004 rdata=0x54D0D9E8
 26629.50ns WARNING  cocotb_bridge                      [sfu_mon] op04_ROPE sfu_raddr=0x20040008 rdata=0xC700D600
 26630.50ns WARNING  cocotb_bridge                      [sfu_mon] op04_ROPE sfu_raddr=0x2004000C rdata=0xD2E04C40
 26631.50ns WARNING  cocotb_bridge                      [sfu_mon] op04_ROPE sfu_raddr=0x20040010 rdata=0x581859E8
 26632.50ns WARNING  cocotb_bridge                      [sfu_mon] op04_ROPE sfu_raddr=0x20040014 rdata=0xD420DC38
 26633.50ns WARNING  cocotb_bridge                      [sfu_mon] op04_ROPE sfu_raddr=0x20040018 rdata=0x5B805C8C
 26634.50ns WARNING  cocotb_bridge                      [sfu_mon] op04_ROPE sfu_raddr=0x2004001C rdata=0xD7F0DAB0
 26635.50ns WARNING  cocotb_bridge                      [sfu_mon] op04_ROPE sfu_raddr=0x20040020 rdata=0xDAA0E076
 26636.50ns WARNING  cocotb_bridge                      [sfu_mon] op04_ROPE sfu_raddr=0x20040024 rdata=0xD550622E
 26637.50ns WARNING  cocotb_bridge                      [sfu_mon] op04_ROPE sfu_raddr=0x20040028 rdata=0x59A05F40
 26638.50ns WARNING  cocotb_bridge                      [sfu_mon] op04_ROPE AR addr=0x20040040
 26638.50ns WARNING  cocotb_bridge                      [sfu_mon] op04_ROPE sfu_raddr=0x2004002C rdata=0x52005838
 26639.50ns WARNING  cocotb_bridge                      [sfu_mon] op04_ROPE sfu_raddr=0x20040030 rdata=0xDA8054C0
 26640.50ns WARNING  cocotb_bridge                      [sfu_mon] op04_ROPE R data=0xdc94d480d3405040d8b04f805540cc40cf804400d360d9d0da7058a0dc585470e002d850d6405cc85790df145460dd70d8f8d878d2a0d3a0d100dde850e055f0
 26640.50ns WARNING  cocotb_bridge                      [sfu_mon] op04_ROPE sfu_raddr=0x20040034 rdata=0xDDE4D220
 26641.50ns WARNING  cocotb_bridge                      [sfu_mon] op04_ROPE sfu_raddr=0x20040038 rdata=0xD7B05660
 26642.50ns WARNING  cocotb_bridge                      [sfu_mon] op04_ROPE sfu_raddr=0x2004003C rdata=0x5E00CE80
 26643.50ns WARNING  cocotb_bridge                      [sfu_mon] op04_ROPE sfu_raddr=0x20040040 rdata=0x50E055F0
 26644.50ns WARNING  cocotb_bridge                      [sfu_mon] op04_ROPE sfu_raddr=0x20040044 rdata=0xD100DDE8
 26645.50ns WARNING  cocotb_bridge                      [sfu_mon] op04_ROPE sfu_raddr=0x20040048 rdata=0xD2A0D3A0
 26645.50ns WARNING  cocotb_bridge                      [sfu_mon] op04_ROPE sfu_waddr=0x20031000 wdata=0xDC48D9A8
 26646.50ns WARNING  cocotb_bridge                      [sfu_mon] op04_ROPE sfu_raddr=0x2004004C rdata=0xD8F8D878
 26646.50ns WARNING  cocotb_bridge                      [sfu_mon] op04_ROPE sfu_waddr=0x20031004 wdata=0x54D0D9E8
 26647.50ns WARNING  cocotb_bridge                      [sfu_mon] op04_ROPE sfu_raddr=0x20040050 rdata=0x5460DD70
 26647.50ns WARNING  cocotb_bridge                      [sfu_mon] op04_ROPE sfu_waddr=0x20031008 wdata=0xC6FFD600
 26648.50ns WARNING  cocotb_bridge                      [sfu_mon] op04_ROPE sfu_raddr=0x20040054 rdata=0x5790DF14
 26648.50ns WARNING  cocotb_bridge                      [sfu_mon] op04_ROPE sfu_waddr=0x2003100C wdata=0xD2E04C40
 26649.50ns WARNING  cocotb_bridge                      [sfu_mon] op04_ROPE sfu_raddr=0x20040058 rdata=0xD6405CC8
 26649.50ns WARNING  cocotb_bridge                      [sfu_mon] op04_ROPE sfu_waddr=0x20031010 wdata=0x581859E8
 26650.50ns WARNING  cocotb_bridge                      [sfu_mon] op04_ROPE sfu_raddr=0x2004005C rdata=0xE002D850
 26650.50ns WARNING  cocotb_bridge                      [sfu_mon] op04_ROPE sfu_waddr=0x20031014 wdata=0xD420DC38
 26651.50ns WARNING  cocotb_bridge                      [sfu_mon] op04_ROPE sfu_raddr=0x20040060 rdata=0xDC585470
 26651.50ns WARNING  cocotb_bridge                      [sfu_mon] op04_ROPE sfu_waddr=0x20031018 wdata=0x5B805C8C
 26652.50ns WARNING  cocotb_bridge                      [sfu_mon] op04_ROPE sfu_raddr=0x20040064 rdata=0xDA7058A0
 26652.50ns WARNING  cocotb_bridge                      [sfu_mon] op04_ROPE sfu_waddr=0x2003101C wdata=0xD7F0DAB0
 26653.50ns WARNING  cocotb_bridge                      [sfu_mon] op04_ROPE sfu_raddr=0x20040068 rdata=0xD360D9D0
 26653.50ns WARNING  cocotb_bridge                      [sfu_mon] op04_ROPE sfu_waddr=0x20031020 wdata=0xDAA0E076
 26654.50ns WARNING  cocotb_bridge                      [sfu_mon] op04_ROPE AR addr=0x20040080
 26654.50ns WARNING  cocotb_bridge                      [sfu_mon] op04_ROPE sfu_raddr=0x2004006C rdata=0xCF804400
 26654.50ns WARNING  cocotb_bridge                      [sfu_mon] op04_ROPE sfu_waddr=0x20031024 wdata=0xD550622E
 26655.50ns WARNING  cocotb_bridge                      [sfu_mon] op04_ROPE sfu_raddr=0x20040070 rdata=0x5540CC40
 26655.50ns WARNING  cocotb_bridge                      [sfu_mon] op04_ROPE sfu_waddr=0x20031028 wdata=0x59A05F40
 26656.50ns WARNING  cocotb_bridge                      [sfu_mon] op04_ROPE R data=0x5d585af85770dc5cdb00ddac54305d805000d6b05cbcd5505d845a88daf8d1005910db48ddb448805e28ddc85d3458e05c10dc845b105c28d8185a80d570d430
 26656.50ns WARNING  cocotb_bridge                      [sfu_mon] op04_ROPE sfu_raddr=0x20040074 rdata=0xD8B04F80
 26656.50ns WARNING  cocotb_bridge                      [sfu_mon] op04_ROPE sfu_waddr=0x2003102C wdata=0x52005838
 26657.50ns WARNING  cocotb_bridge                      [sfu_mon] op04_ROPE sfu_raddr=0x20040078 rdata=0xD3405040
 26657.50ns WARNING  cocotb_bridge                      [sfu_mon] op04_ROPE sfu_waddr=0x20031030 wdata=0xDA8054C0
 26658.50ns WARNING  cocotb_bridge                      [sfu_mon] op04_ROPE sfu_raddr=0x2004007C rdata=0xDC94D480
 26658.50ns WARNING  cocotb_bridge                      [sfu_mon] op04_ROPE sfu_waddr=0x20031034 wdata=0xDDE4D220
 26659.50ns WARNING  cocotb_bridge                      [sfu_mon] op04_ROPE sfu_raddr=0x20040080 rdata=0xD570D430
 26659.50ns WARNING  cocotb_bridge                      [sfu_mon] op04_ROPE sfu_waddr=0x20031038 wdata=0xD7B05660
 26660.50ns WARNING  cocotb_bridge                      [sfu_mon] op04_ROPE sfu_raddr=0x20040084 rdata=0xD8185A80
 26660.50ns WARNING  cocotb_bridge                      [sfu_mon] op04_ROPE sfu_waddr=0x2003103C wdata=0x5E00CE80
 26661.50ns WARNING  cocotb_bridge                      [sfu_mon] op04_ROPE sfu_raddr=0x20040088 rdata=0x5B105C28
 26661.50ns WARNING  cocotb_bridge                      [sfu_mon] op04_ROPE sfu_waddr=0x20031040 wdata=0x50E055F0
 26662.50ns WARNING  cocotb_bridge                      [sfu_mon] op04_ROPE sfu_raddr=0x2004008C rdata=0x5C10DC84
 26662.50ns WARNING  cocotb_bridge                      [sfu_mon] op04_ROPE sfu_waddr=0x20031044 wdata=0xD100DDE8
 26663.50ns WARNING  cocotb_bridge                      [sfu_mon] op04_ROPE sfu_raddr=0x20040090 rdata=0x5D3458E0
 26663.50ns WARNING  cocotb_bridge                      [sfu_mon] op04_ROPE sfu_waddr=0x20031048 wdata=0xD2A0D3A0
 26664.50ns WARNING  cocotb_bridge                      [sfu_mon] op04_ROPE sfu_raddr=0x20040094 rdata=0x5E28DDC8
 26664.50ns WARNING  cocotb_bridge                      [sfu_mon] op04_ROPE sfu_waddr=0x2003104C wdata=0xD8F8D878
 26665.50ns WARNING  cocotb_bridge                      [sfu_mon] op04_ROPE sfu_raddr=0x20040098 rdata=0xDDB44880
 26665.50ns WARNING  cocotb_bridge                      [sfu_mon] op04_ROPE sfu_waddr=0x20031050 wdata=0x5460DD70
 26666.50ns WARNING  cocotb_bridge                      [sfu_mon] op04_ROPE sfu_raddr=0x2004009C rdata=0x5910DB48
 26666.50ns WARNING  cocotb_bridge                      [sfu_mon] op04_ROPE sfu_waddr=0x20031054 wdata=0x5790DF14
 26667.50ns WARNING  cocotb_bridge                      [sfu_mon] op04_ROPE sfu_raddr=0x200400A0 rdata=0xDAF8D100
 26667.50ns WARNING  cocotb_bridge                      [sfu_mon] op04_ROPE sfu_waddr=0x20031058 wdata=0xD6405CC8
 26668.50ns WARNING  cocotb_bridge                      [sfu_mon] op04_ROPE sfu_raddr=0x200400A4 rdata=0x5D845A88
 26668.50ns WARNING  cocotb_bridge                      [sfu_mon] op04_ROPE sfu_waddr=0x2003105C wdata=0xE002D850
 26669.50ns WARNING  cocotb_bridge                      [sfu_mon] op04_ROPE sfu_raddr=0x200400A8 rdata=0x5CBCD550
 26669.50ns WARNING  cocotb_bridge                      [sfu_mon] op04_ROPE sfu_waddr=0x20031060 wdata=0xDC585470
 26670.50ns WARNING  cocotb_bridge                      [sfu_mon] op04_ROPE AR addr=0x200400C0
 26670.50ns WARNING  cocotb_bridge                      [sfu_mon] op04_ROPE sfu_raddr=0x200400AC rdata=0x5000D6B0
 26670.50ns WARNING  cocotb_bridge                      [sfu_mon] op04_ROPE sfu_waddr=0x20031064 wdata=0xDA7058A0
 26671.50ns WARNING  cocotb_bridge                      [sfu_mon] op04_ROPE sfu_raddr=0x200400B0 rdata=0x54305D80
 26671.50ns WARNING  cocotb_bridge                      [sfu_mon] op04_ROPE sfu_waddr=0x20031068 wdata=0xD360D9D0
 26672.50ns WARNING  cocotb_bridge                      [sfu_mon] op04_ROPE R data=0x61565d8cd9e057a05c385bf0dce0d938d9b05060dd18dce0d40050a0dd0c5c70d200cd40d040cc40dc78dcb8dd14c900d4405b70cdc058f84f8058b0dca0da60
 26672.50ns WARNING  cocotb_bridge                      [sfu_mon] op04_ROPE sfu_raddr=0x200400B4 rdata=0xDB00DDAC
 26672.50ns WARNING  cocotb_bridge                      [sfu_mon] op04_ROPE sfu_waddr=0x2003106C wdata=0xCF804400
 26673.50ns WARNING  cocotb_bridge                      [sfu_mon] op04_ROPE sfu_raddr=0x200400B8 rdata=0x5770DC5C
 26673.50ns WARNING  cocotb_bridge                      [sfu_mon] op04_ROPE sfu_waddr=0x20031070 wdata=0x5540CC40
 26674.50ns WARNING  cocotb_bridge                      [sfu_mon] op04_ROPE sfu_raddr=0x200400BC rdata=0x5D585AF8
 26674.50ns WARNING  cocotb_bridge                      [sfu_mon] op04_ROPE sfu_waddr=0x20031074 wdata=0xD8B04F80
 26675.50ns WARNING  cocotb_bridge                      [sfu_mon] op04_ROPE sfu_raddr=0x200400C0 rdata=0xDCA0DA60
 26675.50ns WARNING  cocotb_bridge                      [sfu_mon] op04_ROPE sfu_waddr=0x20031078 wdata=0xD3405040
 26676.50ns WARNING  cocotb_bridge                      [sfu_mon] op04_ROPE sfu_raddr=0x200400C4 rdata=0x4F8058B0
 26676.50ns WARNING  cocotb_bridge                      [sfu_mon] op04_ROPE sfu_waddr=0x2003107C wdata=0xDC94D480
 26677.50ns WARNING  cocotb_bridge                      [sfu_mon] op04_ROPE sfu_raddr=0x200400C8 rdata=0xCDC058F8
 26677.50ns WARNING  cocotb_bridge                      [sfu_mon] op04_ROPE sfu_waddr=0x20031080 wdata=0xD570D430
 26678.50ns WARNING  cocotb_bridge                      [sfu_mon] op04_ROPE sfu_raddr=0x200400CC rdata=0xD4405B70
 26678.50ns WARNING  cocotb_bridge                      [sfu_mon] op04_ROPE sfu_waddr=0x20031084 wdata=0xD8185A80
 26679.50ns WARNING  cocotb_bridge                      [sfu_mon] op04_ROPE sfu_raddr=0x200400D0 rdata=0xDD14C900
 26679.50ns WARNING  cocotb_bridge                      [sfu_mon] op04_ROPE sfu_waddr=0x20031088 wdata=0x5B105C28
 26680.50ns WARNING  cocotb_bridge                      [sfu_mon] op04_ROPE sfu_raddr=0x200400D4 rdata=0xDC78DCB8
 26680.50ns WARNING  cocotb_bridge                      [sfu_mon] op04_ROPE sfu_waddr=0x2003108C wdata=0x5C10DC84
 26681.50ns WARNING  cocotb_bridge                      [sfu_mon] op04_ROPE sfu_raddr=0x200400D8 rdata=0xD040CC40
 26681.50ns WARNING  cocotb_bridge                      [sfu_mon] op04_ROPE sfu_waddr=0x20031090 wdata=0x5D3458E0
 26682.50ns WARNING  cocotb_bridge                      [sfu_mon] op04_ROPE sfu_raddr=0x200400DC rdata=0xD200CD40
 26682.50ns WARNING  cocotb_bridge                      [sfu_mon] op04_ROPE sfu_waddr=0x20031094 wdata=0x5E28DDC8
 26683.50ns WARNING  cocotb_bridge                      [sfu_mon] op04_ROPE sfu_raddr=0x200400E0 rdata=0xDD0C5C70
 26683.50ns WARNING  cocotb_bridge                      [sfu_mon] op04_ROPE sfu_waddr=0x20031098 wdata=0xDDB4487F
 26684.50ns WARNING  cocotb_bridge                      [sfu_mon] op04_ROPE sfu_raddr=0x200400E4 rdata=0xD40050A0
 26684.50ns WARNING  cocotb_bridge                      [sfu_mon] op04_ROPE sfu_waddr=0x2003109C wdata=0x5910DB48
 26685.50ns WARNING  cocotb_bridge                      [sfu_mon] op04_ROPE sfu_raddr=0x200400E8 rdata=0xDD18DCE0
 26685.50ns WARNING  cocotb_bridge                      [sfu_mon] op04_ROPE sfu_waddr=0x200310A0 wdata=0xDAF8D100
 26686.50ns WARNING  cocotb_bridge                      [sfu_mon] op04_ROPE AR addr=0x20040100
 26686.50ns WARNING  cocotb_bridge                      [sfu_mon] op04_ROPE sfu_raddr=0x200400EC rdata=0xD9B05060
 26686.50ns WARNING  cocotb_bridge                      [sfu_mon] op04_ROPE sfu_waddr=0x200310A4 wdata=0x5D845A88
 26687.50ns WARNING  cocotb_bridge                      [sfu_mon] op04_ROPE sfu_raddr=0x200400F0 rdata=0xDCE0D938
 26687.50ns WARNING  cocotb_bridge                      [sfu_mon] op04_ROPE sfu_waddr=0x200310A8 wdata=0x5CBCD550
 26688.50ns WARNING  cocotb_bridge                      [sfu_mon] op04_ROPE R data=0x4000d620d7605908e088d8b85e64d1a0ddb8d100548059f05c304b005a18d750d200dd585740d3c0d8085760d830d980d7c05700cb00dd8c59785ba8dba8dcd0
 26688.50ns WARNING  cocotb_bridge                      [sfu_mon] op04_ROPE sfu_raddr=0x200400F4 rdata=0x5C385BF0
 26688.50ns WARNING  cocotb_bridge                      [sfu_mon] op04_ROPE sfu_waddr=0x200310AC wdata=0x5000D6B0
 26689.50ns WARNING  cocotb_bridge                      [sfu_mon] op04_ROPE sfu_raddr=0x200400F8 rdata=0xD9E057A0
 26689.50ns WARNING  cocotb_bridge                      [sfu_mon] op04_ROPE sfu_waddr=0x200310B0 wdata=0x54305D80
 26690.50ns WARNING  cocotb_bridge                      [sfu_mon] op04_ROPE sfu_raddr=0x200400FC rdata=0x61565D8C
 26690.50ns WARNING  cocotb_bridge                      [sfu_mon] op04_ROPE sfu_waddr=0x200310B4 wdata=0xDB00DDAC
 26691.50ns WARNING  cocotb_bridge                      [sfu_mon] op04_ROPE sfu_raddr=0x20040100 rdata=0xDBA8DCD0
 26691.50ns WARNING  cocotb_bridge                      [sfu_mon] op04_ROPE sfu_waddr=0x200310B8 wdata=0x5770DC5C
 26692.50ns WARNING  cocotb_bridge                      [sfu_mon] op04_ROPE sfu_raddr=0x20040104 rdata=0x59785BA8
 26692.50ns WARNING  cocotb_bridge                      [sfu_mon] op04_ROPE sfu_waddr=0x200310BC wdata=0x5D585AF8
 26693.50ns WARNING  cocotb_bridge                      [sfu_mon] op04_ROPE sfu_raddr=0x20040108 rdata=0xCB00DD8C
 26693.50ns WARNING  cocotb_bridge                      [sfu_mon] op04_ROPE sfu_waddr=0x200310C0 wdata=0xDCA0DA60
 26694.50ns WARNING  cocotb_bridge                      [sfu_mon] op04_ROPE sfu_raddr=0x2004010C rdata=0xD7C05700
 26694.50ns WARNING  cocotb_bridge                      [sfu_mon] op04_ROPE sfu_waddr=0x200310C4 wdata=0x4F8058B0
 26695.50ns WARNING  cocotb_bridge                      [sfu_mon] op04_ROPE sfu_raddr=0x20040110 rdata=0xD830D980
 26695.50ns WARNING  cocotb_bridge                      [sfu_mon] op04_ROPE sfu_waddr=0x200310C8 wdata=0xCDC058F8
 26696.50ns WARNING  cocotb_bridge                      [sfu_mon] op04_ROPE sfu_raddr=0x20040114 rdata=0xD8085760
 26696.50ns WARNING  cocotb_bridge                      [sfu_mon] op04_ROPE sfu_waddr=0x200310CC wdata=0xD4405B70
 26697.50ns WARNING  cocotb_bridge                      [sfu_mon] op04_ROPE sfu_raddr=0x20040118 rdata=0x5740D3C0
 26697.50ns WARNING  cocotb_bridge                      [sfu_mon] op04_ROPE sfu_waddr=0x200310D0 wdata=0xDD14C901
 26698.50ns WARNING  cocotb_bridge                      [sfu_mon] op04_ROPE sfu_raddr=0x2004011C rdata=0xD200DD58
 26698.50ns WARNING  cocotb_bridge                      [sfu_mon] op04_ROPE sfu_waddr=0x200310D4 wdata=0xDC78DCB8
 26699.50ns WARNING  cocotb_bridge                      [sfu_mon] op04_ROPE sfu_raddr=0x20040120 rdata=0x5A18D750
 26699.50ns WARNING  cocotb_bridge                      [sfu_mon] op04_ROPE sfu_waddr=0x200310D8 wdata=0xD040CC40
 26700.50ns WARNING  cocotb_bridge                      [sfu_mon] op04_ROPE sfu_raddr=0x20040124 rdata=0x5C304B00
 26700.50ns WARNING  cocotb_bridge                      [sfu_mon] op04_ROPE sfu_waddr=0x200310DC wdata=0xD200CD40
 26701.50ns WARNING  cocotb_bridge                      [sfu_mon] op04_ROPE sfu_raddr=0x20040128 rdata=0x548059F0
 26701.50ns WARNING  cocotb_bridge                      [sfu_mon] op04_ROPE sfu_waddr=0x200310E0 wdata=0xDD0C5C70
 26702.50ns WARNING  cocotb_bridge                      [sfu_mon] op04_ROPE AR addr=0x20040140
 26702.50ns WARNING  cocotb_bridge                      [sfu_mon] op04_ROPE sfu_raddr=0x2004012C rdata=0xDDB8D100
 26702.50ns WARNING  cocotb_bridge                      [sfu_mon] op04_ROPE sfu_waddr=0x200310E4 wdata=0xD40050A0
 26703.50ns WARNING  cocotb_bridge                      [sfu_mon] op04_ROPE sfu_raddr=0x20040130 rdata=0x5E64D1A0
 26703.50ns WARNING  cocotb_bridge                      [sfu_mon] op04_ROPE sfu_waddr=0x200310E8 wdata=0xDD18DCE0
 26704.50ns WARNING  cocotb_bridge                      [sfu_mon] op04_ROPE R data=0xd908deb0d1805790d6d0db50d828d8205b20cfc0d670d970d160dc445bc05a684c805fd8d680d160ca00d5a04e40d1e05e50d5b0616a5e285cf8cf80594858b8
 26704.50ns WARNING  cocotb_bridge                      [sfu_mon] op04_ROPE sfu_raddr=0x20040134 rdata=0xE088D8B8
 26704.50ns WARNING  cocotb_bridge                      [sfu_mon] op04_ROPE sfu_waddr=0x200310EC wdata=0xD9B05060
 26705.50ns WARNING  cocotb_bridge                      [sfu_mon] op04_ROPE sfu_raddr=0x20040138 rdata=0xD7605908
 26705.50ns WARNING  cocotb_bridge                      [sfu_mon] op04_ROPE sfu_waddr=0x200310F0 wdata=0xDCE0D938
 26706.50ns WARNING  cocotb_bridge                      [sfu_mon] op04_ROPE sfu_raddr=0x2004013C rdata=0x4000D620
 26706.50ns WARNING  cocotb_bridge                      [sfu_mon] op04_ROPE sfu_waddr=0x200310F4 wdata=0x5C385BF0
 26707.50ns WARNING  cocotb_bridge                      [sfu_mon] op04_ROPE sfu_raddr=0x20040140 rdata=0x594858B8
 26707.50ns WARNING  cocotb_bridge                      [sfu_mon] op04_ROPE sfu_waddr=0x200310F8 wdata=0xD9E057A0
 26708.50ns WARNING  cocotb_bridge                      [sfu_mon] op04_ROPE sfu_raddr=0x20040144 rdata=0x5CF8CF80
 26708.50ns WARNING  cocotb_bridge                      [sfu_mon] op04_ROPE sfu_waddr=0x200310FC wdata=0x61565D8C
 26709.50ns WARNING  cocotb_bridge                      [sfu_mon] op04_ROPE sfu_raddr=0x20040148 rdata=0x616A5E28
 26709.50ns WARNING  cocotb_bridge                      [sfu_mon] op04_ROPE sfu_waddr=0x20031100 wdata=0xDBA8DCD0
 26710.50ns WARNING  cocotb_bridge                      [sfu_mon] op04_ROPE sfu_raddr=0x2004014C rdata=0x5E50D5B0
 26710.50ns WARNING  cocotb_bridge                      [sfu_mon] op04_ROPE sfu_waddr=0x20031104 wdata=0x59785BA8
 26711.50ns WARNING  cocotb_bridge                      [sfu_mon] op04_ROPE sfu_raddr=0x20040150 rdata=0x4E40D1E0
 26711.50ns WARNING  cocotb_bridge                      [sfu_mon] op04_ROPE sfu_waddr=0x20031108 wdata=0xCAFFDD8C
 26712.50ns WARNING  cocotb_bridge                      [sfu_mon] op04_ROPE sfu_raddr=0x20040154 rdata=0xCA00D5A0
 26712.50ns WARNING  cocotb_bridge                      [sfu_mon] op04_ROPE sfu_waddr=0x2003110C wdata=0xD7C05700
 26713.50ns WARNING  cocotb_bridge                      [sfu_mon] op04_ROPE sfu_raddr=0x20040158 rdata=0xD680D160
 26713.50ns WARNING  cocotb_bridge                      [sfu_mon] op04_ROPE sfu_waddr=0x20031110 wdata=0xD830D980
 26714.50ns WARNING  cocotb_bridge                      [sfu_mon] op04_ROPE sfu_raddr=0x2004015C rdata=0x4C805FD8
 26714.50ns WARNING  cocotb_bridge                      [sfu_mon] op04_ROPE sfu_waddr=0x20031114 wdata=0xD8085760
 26715.50ns WARNING  cocotb_bridge                      [sfu_mon] op04_ROPE sfu_raddr=0x20040160 rdata=0x5BC05A68
 26715.50ns WARNING  cocotb_bridge                      [sfu_mon] op04_ROPE sfu_waddr=0x20031118 wdata=0x5740D3C0
 26716.50ns WARNING  cocotb_bridge                      [sfu_mon] op04_ROPE sfu_raddr=0x20040164 rdata=0xD160DC44
 26716.50ns WARNING  cocotb_bridge                      [sfu_mon] op04_ROPE sfu_waddr=0x2003111C wdata=0xD200DD58
 26717.50ns WARNING  cocotb_bridge                      [sfu_mon] op04_ROPE sfu_raddr=0x20040168 rdata=0xD670D970
 26717.50ns WARNING  cocotb_bridge                      [sfu_mon] op04_ROPE sfu_waddr=0x20031120 wdata=0x5A18D750
 26718.50ns WARNING  cocotb_bridge                      [sfu_mon] op04_ROPE AR addr=0x20040180
 26718.50ns WARNING  cocotb_bridge                      [sfu_mon] op04_ROPE sfu_raddr=0x2004016C rdata=0x5B20CFC0
 26718.50ns WARNING  cocotb_bridge                      [sfu_mon] op04_ROPE sfu_waddr=0x20031124 wdata=0x5C304B01
 26719.50ns WARNING  cocotb_bridge                      [sfu_mon] op04_ROPE sfu_raddr=0x20040170 rdata=0xD828D820
 26719.50ns WARNING  cocotb_bridge                      [sfu_mon] op04_ROPE sfu_waddr=0x20031128 wdata=0x548059F0
 26720.50ns WARNING  cocotb_bridge                      [sfu_mon] op04_ROPE R data=0x55e04980dc30dc1c59605e1458d85b28d2c056005970d710c400dbd85ab85500dc985c90ce005c94dab0dda4e1564b0000005a603c00dbc0c880da48dd6cd100
 26720.50ns WARNING  cocotb_bridge                      [sfu_mon] op04_ROPE sfu_raddr=0x20040174 rdata=0xD6D0DB50
 26720.50ns WARNING  cocotb_bridge                      [sfu_mon] op04_ROPE sfu_waddr=0x2003112C wdata=0xDDB8D100
 26721.50ns WARNING  cocotb_bridge                      [sfu_mon] op04_ROPE sfu_raddr=0x20040178 rdata=0xD1805790
 26721.50ns WARNING  cocotb_bridge                      [sfu_mon] op04_ROPE sfu_waddr=0x20031130 wdata=0x5E64D1A0
 26722.50ns WARNING  cocotb_bridge                      [sfu_mon] op04_ROPE sfu_raddr=0x2004017C rdata=0xD908DEB0
 26722.50ns WARNING  cocotb_bridge                      [sfu_mon] op04_ROPE sfu_waddr=0x20031134 wdata=0xE088D8B8
 26723.50ns WARNING  cocotb_bridge                      [sfu_mon] op04_ROPE sfu_raddr=0x20040180 rdata=0xDD6CD100
 26723.50ns WARNING  cocotb_bridge                      [sfu_mon] op04_ROPE sfu_waddr=0x20031138 wdata=0xD7605908
 26724.50ns WARNING  cocotb_bridge                      [sfu_mon] op04_ROPE sfu_raddr=0x20040184 rdata=0xC880DA48
 26724.50ns WARNING  cocotb_bridge                      [sfu_mon] op04_ROPE sfu_waddr=0x2003113C wdata=0x4001D620
 26725.50ns WARNING  cocotb_bridge                      [sfu_mon] op04_ROPE sfu_raddr=0x20040188 rdata=0x3C00DBC0
 26725.50ns WARNING  cocotb_bridge                      [sfu_mon] op04_ROPE sfu_waddr=0x20031140 wdata=0x594858B8
 26726.50ns WARNING  cocotb_bridge                      [sfu_mon] op04_ROPE sfu_raddr=0x2004018C rdata=0x00005A60
 26726.50ns WARNING  cocotb_bridge                      [sfu_mon] op04_ROPE sfu_waddr=0x20031144 wdata=0x5CF8CF80
 26727.50ns WARNING  cocotb_bridge                      [sfu_mon] op04_ROPE sfu_raddr=0x20040190 rdata=0xE1564B00
 26727.50ns WARNING  cocotb_bridge                      [sfu_mon] op04_ROPE sfu_waddr=0x20031148 wdata=0x616A5E28
 26728.50ns WARNING  cocotb_bridge                      [sfu_mon] op04_ROPE sfu_raddr=0x20040194 rdata=0xDAB0DDA4
 26728.50ns WARNING  cocotb_bridge                      [sfu_mon] op04_ROPE sfu_waddr=0x2003114C wdata=0x5E50D5B0
 26729.50ns WARNING  cocotb_bridge                      [sfu_mon] op04_ROPE sfu_raddr=0x20040198 rdata=0xCE005C94
 26729.50ns WARNING  cocotb_bridge                      [sfu_mon] op04_ROPE sfu_waddr=0x20031150 wdata=0x4E40D1E0
 26730.50ns WARNING  cocotb_bridge                      [sfu_mon] op04_ROPE sfu_raddr=0x2004019C rdata=0xDC985C90
 26730.50ns WARNING  cocotb_bridge                      [sfu_mon] op04_ROPE sfu_waddr=0x20031154 wdata=0xCA00D5A0
 26731.50ns WARNING  cocotb_bridge                      [sfu_mon] op04_ROPE sfu_raddr=0x200401A0 rdata=0x5AB85500
 26731.50ns WARNING  cocotb_bridge                      [sfu_mon] op04_ROPE sfu_waddr=0x20031158 wdata=0xD680D160
 26732.50ns WARNING  cocotb_bridge                      [sfu_mon] op04_ROPE sfu_raddr=0x200401A4 rdata=0xC400DBD8
 26732.50ns WARNING  cocotb_bridge                      [sfu_mon] op04_ROPE sfu_waddr=0x2003115C wdata=0x4C7F5FD8
 26733.50ns WARNING  cocotb_bridge                      [sfu_mon] op04_ROPE sfu_raddr=0x200401A8 rdata=0x5970D710
 26733.50ns WARNING  cocotb_bridge                      [sfu_mon] op04_ROPE sfu_waddr=0x20031160 wdata=0x5BC05A68
 26734.50ns WARNING  cocotb_bridge                      [sfu_mon] op04_ROPE AR addr=0x200401C0
 26734.50ns WARNING  cocotb_bridge                      [sfu_mon] op04_ROPE sfu_raddr=0x200401AC rdata=0xD2C05600
 26734.50ns WARNING  cocotb_bridge                      [sfu_mon] op04_ROPE sfu_waddr=0x20031164 wdata=0xD160DC44
 26735.50ns WARNING  cocotb_bridge                      [sfu_mon] op04_ROPE sfu_raddr=0x200401B0 rdata=0x58D85B28
 26735.50ns WARNING  cocotb_bridge                      [sfu_mon] op04_ROPE sfu_waddr=0x20031168 wdata=0xD670D970
 26736.50ns WARNING  cocotb_bridge                      [sfu_mon] op04_ROPE R data=0x5cd85100dcd855705e505a70dee05490d940dc84d630daf0df305cf4dbd0d3a053a0546055c0da18dd40cfc0606658d8dac04e00514055905cdcdfc4db78d8c8
 26736.50ns WARNING  cocotb_bridge                      [sfu_mon] op04_ROPE sfu_raddr=0x200401B4 rdata=0x59605E14
 26736.50ns WARNING  cocotb_bridge                      [sfu_mon] op04_ROPE sfu_waddr=0x2003116C wdata=0x5B20CFC0
 26737.50ns WARNING  cocotb_bridge                      [sfu_mon] op04_ROPE sfu_raddr=0x200401B8 rdata=0xDC30DC1C
 26737.50ns WARNING  cocotb_bridge                      [sfu_mon] op04_ROPE sfu_waddr=0x20031170 wdata=0xD828D820
 26738.50ns WARNING  cocotb_bridge                      [sfu_mon] op04_ROPE sfu_raddr=0x200401BC rdata=0x55E04980
 26738.50ns WARNING  cocotb_bridge                      [sfu_mon] op04_ROPE sfu_waddr=0x20031174 wdata=0xD6D0DB50
 26739.50ns WARNING  cocotb_bridge                      [sfu_mon] op04_ROPE sfu_raddr=0x200401C0 rdata=0xDB78D8C8
 26739.50ns WARNING  cocotb_bridge                      [sfu_mon] op04_ROPE sfu_waddr=0x20031178 wdata=0xD1805790
 26740.50ns WARNING  cocotb_bridge                      [sfu_mon] op04_ROPE sfu_raddr=0x200401C4 rdata=0x5CDCDFC4
 26740.50ns WARNING  cocotb_bridge                      [sfu_mon] op04_ROPE sfu_waddr=0x2003117C wdata=0xD908DEB0
 26741.50ns WARNING  cocotb_bridge                      [sfu_mon] op04_ROPE sfu_raddr=0x200401C8 rdata=0x51405590
 26741.50ns WARNING  cocotb_bridge                      [sfu_mon] op04_ROPE sfu_waddr=0x20031180 wdata=0xDD6CD100
 26742.50ns WARNING  cocotb_bridge                      [sfu_mon] op04_ROPE sfu_raddr=0x200401CC rdata=0xDAC04E00
 26742.50ns WARNING  cocotb_bridge                      [sfu_mon] op04_ROPE sfu_waddr=0x20031184 wdata=0xC880DA48
 26743.50ns WARNING  cocotb_bridge                      [sfu_mon] op04_ROPE sfu_raddr=0x200401D0 rdata=0x606658D8
 26743.50ns WARNING  cocotb_bridge                      [sfu_mon] op04_ROPE sfu_waddr=0x20031188 wdata=0x3C05DBC0
 26744.50ns WARNING  cocotb_bridge                      [sfu_mon] op04_ROPE sfu_raddr=0x200401D4 rdata=0xDD40CFC0
 26744.50ns WARNING  cocotb_bridge                      [sfu_mon] op04_ROPE sfu_waddr=0x2003118C wdata=0x9B005A60
 26745.50ns WARNING  cocotb_bridge                      [sfu_mon] op04_ROPE sfu_raddr=0x200401D8 rdata=0x55C0DA18
 26745.50ns WARNING  cocotb_bridge                      [sfu_mon] op04_ROPE sfu_waddr=0x20031190 wdata=0xE1564AFE
 26746.50ns WARNING  cocotb_bridge                      [sfu_mon] op04_ROPE sfu_raddr=0x200401DC rdata=0x53A05460
 26746.50ns WARNING  cocotb_bridge                      [sfu_mon] op04_ROPE sfu_waddr=0x20031194 wdata=0xDAB0DDA4
 26747.50ns WARNING  cocotb_bridge                      [sfu_mon] op04_ROPE sfu_raddr=0x200401E0 rdata=0xDBD0D3A0
 26747.50ns WARNING  cocotb_bridge                      [sfu_mon] op04_ROPE sfu_waddr=0x20031198 wdata=0xCE005C94
 26748.50ns WARNING  cocotb_bridge                      [sfu_mon] op04_ROPE sfu_raddr=0x200401E4 rdata=0xDF305CF4
 26748.50ns WARNING  cocotb_bridge                      [sfu_mon] op04_ROPE sfu_waddr=0x2003119C wdata=0xDC985C90
 26749.50ns WARNING  cocotb_bridge                      [sfu_mon] op04_ROPE sfu_raddr=0x200401E8 rdata=0xD630DAF0
 26749.50ns WARNING  cocotb_bridge                      [sfu_mon] op04_ROPE sfu_waddr=0x200311A0 wdata=0x5AB85500
 26750.50ns WARNING  cocotb_bridge                      [sfu_mon] op04_ROPE AR addr=0x20040200
 26750.50ns WARNING  cocotb_bridge                      [sfu_mon] op04_ROPE sfu_raddr=0x200401EC rdata=0xD940DC84
 26750.50ns WARNING  cocotb_bridge                      [sfu_mon] op04_ROPE sfu_waddr=0x200311A4 wdata=0xC3FEDBD8
 26751.50ns WARNING  cocotb_bridge                      [sfu_mon] op04_ROPE sfu_raddr=0x200401F0 rdata=0xDEE05490
 26751.50ns WARNING  cocotb_bridge                      [sfu_mon] op04_ROPE sfu_waddr=0x200311A8 wdata=0x5970D710
 26752.50ns WARNING  cocotb_bridge                      [sfu_mon] op04_ROPE R data=0xd140cd40e03a594050c0df34e01adac8da80dba0d3a0d878cf80dc805a48595857c05a90cc005960dd38db90558059f8dc10d7405b38d1a0dd10dbb8de90d938
 26752.50ns WARNING  cocotb_bridge                      [sfu_mon] op04_ROPE sfu_raddr=0x200401F4 rdata=0x5E505A70
 26752.50ns WARNING  cocotb_bridge                      [sfu_mon] op04_ROPE sfu_waddr=0x200311AC wdata=0xD2C05600
 26753.50ns WARNING  cocotb_bridge                      [sfu_mon] op04_ROPE sfu_raddr=0x200401F8 rdata=0xDCD85570
 26753.50ns WARNING  cocotb_bridge                      [sfu_mon] op04_ROPE sfu_waddr=0x200311B0 wdata=0x58D85B28
 26754.50ns WARNING  cocotb_bridge                      [sfu_mon] op04_ROPE sfu_raddr=0x200401FC rdata=0x5CD85100
 26754.50ns WARNING  cocotb_bridge                      [sfu_mon] op04_ROPE sfu_waddr=0x200311B4 wdata=0x59605E14
 26755.50ns WARNING  cocotb_bridge                      [sfu_mon] op04_ROPE sfu_raddr=0x20040200 rdata=0xDE90D938
 26755.50ns WARNING  cocotb_bridge                      [sfu_mon] op04_ROPE sfu_waddr=0x200311B8 wdata=0xDC30DC1C
 26756.50ns WARNING  cocotb_bridge                      [sfu_mon] op04_ROPE sfu_raddr=0x20040204 rdata=0xDD10DBB8
 26756.50ns WARNING  cocotb_bridge                      [sfu_mon] op04_ROPE sfu_waddr=0x200311BC wdata=0x55E04980
 26757.50ns WARNING  cocotb_bridge                      [sfu_mon] op04_ROPE sfu_raddr=0x20040208 rdata=0x5B38D1A0
 26757.50ns WARNING  cocotb_bridge                      [sfu_mon] op04_ROPE sfu_waddr=0x200311C0 wdata=0xDB78D8C8
 26758.50ns WARNING  cocotb_bridge                      [sfu_mon] op04_ROPE sfu_raddr=0x2004020C rdata=0xDC10D740
 26758.50ns WARNING  cocotb_bridge                      [sfu_mon] op04_ROPE sfu_waddr=0x200311C4 wdata=0x5CDCDFC4
 26759.50ns WARNING  cocotb_bridge                      [sfu_mon] op04_ROPE sfu_raddr=0x20040210 rdata=0x558059F8
 26759.50ns WARNING  cocotb_bridge                      [sfu_mon] op04_ROPE sfu_waddr=0x200311C8 wdata=0x51405590
 26760.50ns WARNING  cocotb_bridge                      [sfu_mon] op04_ROPE sfu_raddr=0x20040214 rdata=0xDD38DB90
 26760.50ns WARNING  cocotb_bridge                      [sfu_mon] op04_ROPE sfu_waddr=0x200311CC wdata=0xDAC04E00
 26761.50ns WARNING  cocotb_bridge                      [sfu_mon] op04_ROPE sfu_raddr=0x20040218 rdata=0xCC005960
 26761.50ns WARNING  cocotb_bridge                      [sfu_mon] op04_ROPE sfu_waddr=0x200311D0 wdata=0x606658D8
 26762.50ns WARNING  cocotb_bridge                      [sfu_mon] op04_ROPE sfu_raddr=0x2004021C rdata=0x57C05A90
 26762.50ns WARNING  cocotb_bridge                      [sfu_mon] op04_ROPE sfu_waddr=0x200311D4 wdata=0xDD40CFC0
 26763.50ns WARNING  cocotb_bridge                      [sfu_mon] op04_ROPE sfu_raddr=0x20040220 rdata=0x5A485958
 26763.50ns WARNING  cocotb_bridge                      [sfu_mon] op04_ROPE sfu_waddr=0x200311D8 wdata=0x55C0DA18
 26764.50ns WARNING  cocotb_bridge                      [sfu_mon] op04_ROPE sfu_raddr=0x20040224 rdata=0xCF80DC80
 26764.50ns WARNING  cocotb_bridge                      [sfu_mon] op04_ROPE sfu_waddr=0x200311DC wdata=0x53A05460
 26765.50ns WARNING  cocotb_bridge                      [sfu_mon] op04_ROPE sfu_raddr=0x20040228 rdata=0xD3A0D878
 26765.50ns WARNING  cocotb_bridge                      [sfu_mon] op04_ROPE sfu_waddr=0x200311E0 wdata=0xDBD0D3A0
 26766.50ns WARNING  cocotb_bridge                      [sfu_mon] op04_ROPE AR addr=0x20040240
 26766.50ns WARNING  cocotb_bridge                      [sfu_mon] op04_ROPE sfu_raddr=0x2004022C rdata=0xDA80DBA0
 26766.50ns WARNING  cocotb_bridge                      [sfu_mon] op04_ROPE sfu_waddr=0x200311E4 wdata=0xDF305CF4
 26767.50ns WARNING  cocotb_bridge                      [sfu_mon] op04_ROPE sfu_raddr=0x20040230 rdata=0xE01ADAC8
